(1607303790.365786) can0 103#590E000000000000
(1607303790.365905) can0 116#C40E0000000000FF
(1607303790.365909) can0 321#1810
(1607303790.366029) can0 320#003E0000
(1607303790.367402) can0 3D4#320B800600000000
(1607303790.368776) can0 0A7#46D35F7FFDF5D71D
(1607303790.368902) can0 0AD#ABE8BFFF8B140000
(1607303790.372776) can0 2B7#540B0000000000FE
(1607303790.372903) can0 30F#A80B720000000000
(1607303790.372907) can0 0A0#E10C000000009033
(1607303790.372910) can0 1A8#5100000120000400
(1607303790.374276) can0 0A8#01E49F487F640000
(1607303790.378151) can0 121#5704000020427EFE
(1607303790.382025) can0 17F#F70A000000000000
(1607303790.382152) can0 322#F3EA7FFFF30F0000
(1607303790.382156) can0 0A0#C50D000000009033
(1607303790.383526) can0 108#FF0C8471757EFE00
(1607303790.383652) can0 391#00846AFFFF260000
(1607303790.385027) can0 0FD#59EF3F0000000000
(1607303790.385152) can0 0A8#6BE59F487F640000
(1607303790.385156) can0 103#3D0F000000000000
(1607303790.385159) can0 116#A00F0000000000FF
(1607303790.387779) can0 0A7#07D55F7FFDF5D71D
(1607303790.387902) can0 326#FFFFFFFFFFFFFFF1
(1607303790.389275) can0 327#FFFFFFFFFFFFFFF1
(1607303790.389402) can0 328#FFFFFFFFFFFFFFF1
(1607303790.389406) can0 329#FFFFFFFFFFFFFFF1
(1607303790.389409) can0 3F2#0005000000007D00
(1607303790.392025) can0 189#C80E
(1607303790.392152) can0 313#9C0694E1FF81FFFF
(1607303790.392155) can0 314#FF81FFFFFF81FFFF
(1607303790.392277) can0 0A0#5B0E000000009033
(1607303790.393650) can0 1A8#D701000120000400
(1607303790.393777) can0 315#FF81FFFFFF81FFFF
(1607303790.393780) can0 463#00E03F0000000000
(1607303790.393902) can0 58F#0000FEBBFE0E0000
(1607303790.394027) can0 0A8#5BE69F487F640000
(1607303790.397900) can0 65D#F93430120008348E
(1607303790.399275) can0 30B#1008000008000020
(1607303790.399401) can0 1A555496#0000000000000047
(1607303790.402024) can0 0A0#B50F000000009033
(1607303790.403404) can0 663#600020080092000C
(1607303790.403531) can0 1B000010#1050040900030000
(1607303790.403656) can0 3C1#0008000AB6020000
(1607303790.405025) can0 040#870900808100001E
(1607303790.405152) can0 0A8#4EE79F487F640000
(1607303790.405155) can0 0FD#23E03F0000000000
(1607303790.405160) can0 103#7F00000000000000
(1607303790.406526) can0 116#E2000000000000FF
(1607303790.406529) can0 3D5#AC01000414000000
(1607303790.406533) can0 3C0#6B032300
(1607303790.406653) can0 5A0#BEE2812E78000000
(1607303790.406656) can0 5F0#D200634C0B7E0000
(1607303790.406659) can0 320#003E0000
(1607303790.406777) can0 321#F810
(1607303790.406780) can0 5E1#AD0A000000000000
(1607303790.408150) can0 0A7#1DD75F7FFDF5D71D
(1607303790.408276) can0 1AB#B880840A00000000
(1607303790.412153) can0 397#0040000000FA1F00
(1607303790.412278) can0 0A0#9800000000009033
(1607303790.412281) can0 1A8#A212000120000400
(1607303790.413650) can0 1A2#760F702430024002
(1607303790.413776) can0 1FC#208F000000006000
(1607303790.413901) can0 0A8#6CE89F487F640000
(1607303790.421531) can0 3D0#020000008C000300
(1607303790.421651) can0 17F#180B000000000000
(1607303790.423024) can0 2A1#0000000000000000
(1607303790.423151) can0 0A0#9101000000009033
(1607303790.423155) can0 2B7#B70C0000000000FE
(1607303790.423158) can0 30F#BB0C720000000000
(1607303790.423276) can0 322#24EB7FFFF30F0000
(1607303790.424649) can0 0FD#29E13F0000000000
(1607303790.424776) can0 0A8#1EE99F487F640000
(1607303790.424780) can0 103#1B01000000000000
(1607303790.424783) can0 116#86010000000000FF
(1607303790.427401) can0 15C#000000000000FEFF
(1607303790.427526) can0 3F3#007E00FE65D2FF26
(1607303790.427651) can0 12DD5461#00000000004013D0
(1607303790.429024) can0 0A7#80D95F7FFDF5D71D
(1607303790.429151) can0 121#0809000020427EFE
(1607303790.429155) can0 326#FFFFFFFFFFFFFFF1
(1607303790.429158) can0 327#FFFFFFFFFFFFFFF1
(1607303790.429276) can0 328#FFFFFFFFFFFFFFF1
(1607303790.429279) can0 329#FFFFFFFFFFFFFFF1
(1607303790.429401) can0 3BE#C627970142000080
(1607303790.430774) can0 583#0010050000084000
(1607303790.432151) can0 6B4#015A5A5A4659324C
(1607303790.432276) can0 189#C80E
(1607303790.432280) can0 313#9C0694E1FF81FFFF
(1607303790.432283) can0 314#FF81FFFFFF81FFFF
(1607303790.432400) can0 0A0#9E02000000009033
(1607303790.432527) can0 1A8#E503000120000400
(1607303790.432651) can0 18A#0000211400000000
(1607303790.434023) can0 315#FF81FFFFFF81FFFF
(1607303790.434150) can0 3C1#0008000ABA020000
(1607303790.434154) can0 0A8#41EA9F487F640000
(1607303790.443023) can0 0A0#1403000000009033
(1607303790.443150) can0 464#081A000000000000
(1607303790.444523) can0 040#E90A008081000020
(1607303790.444650) can0 0A8#8CEB9F487F640000
(1607303790.444653) can0 0FD#E6E23F0000000000
(1607303790.444657) can0 103#B702000000000000
(1607303790.444775) can0 116#2A020000000000FF
(1607303790.446148) can0 321#8812
(1607303790.446274) can0 320#003E0000
(1607303790.447648) can0 0A7#E8DB5F7FFDF5D71D
(1607303790.449024) can0 30B#1009000008000020
(1607303790.449150) can0 3B5#840020001C002800
(1607303790.451773) can0 668#020000000010001C
(1607303790.451900) can0 66E#F0001900AA000000
(1607303790.451903) can0 671#000C282800000000
(1607303790.452024) can0 0A0#FD04000000009033
(1607303790.453398) can0 1A8#3C040001E0FF0300
(1607303790.454773) can0 395#100540047D7D6B0C
(1607303790.454899) can0 0A8#92EC9F487F640000
(1607303790.462523) can0 1B00004E#4E40040900010000
(1607303790.462650) can0 17F#B40C000000000000
(1607303790.462653) can0 0A0#ED05000000009033
(1607303790.462657) can0 322#4BEC7FFFF30F0000
(1607303790.464023) can0 497#0000000096940060
(1607303790.464149) can0 0A8#81ED9F487F640000
(1607303790.464274) can0 0FD#93E33F0000000000
(1607303790.465647) can0 103#D303000000000000
(1607303790.465774) can0 116#4E030000000000FF
(1607303790.468397) can0 0A7#A7DD5F7FFDF5D71D
(1607303790.468524) can0 0AD#6BE2BFFF8B140000
(1607303790.468528) can0 326#FFFFFFFFFFFFFFF1
(1607303790.468532) can0 327#3D28FC3AFB6FFB20
(1607303790.468649) can0 328#FFFFFFFFFFFFFFF1
(1607303790.470022) can0 329#FFFFFFFFFFFFFFF1
(1607303790.470148) can0 3F2#0006000000007D00
(1607303790.471523) can0 534#0000000000500000
(1607303790.471651) can0 189#C80E
(1607303790.471779) can0 2B7#820D0000000000FE
(1607303790.473149) can0 30F#DF0D720000000000
(1607303790.473275) can0 0A0#3006000000009033
(1607303790.473278) can0 1A8#74050001A0FF0300
(1607303790.473282) can0 313#9C0694E1FF81FFFF
(1607303790.473399) can0 314#FF81FFFFFF81FFFF
(1607303790.473403) can0 315#FF81FFFFFF81FFFF
(1607303790.474773) can0 0A8#33EE9F487F640000
(1607303790.478654) can0 121#830E000020427EFE
(1607303790.482524) can0 0A0#A107000000009033
(1607303790.483897) can0 040#700B008081000022
(1607303790.484024) can0 0A8#BCEF9F487F640000
(1607303790.485397) can0 0FD#05E43F0000000000
(1607303790.485524) can0 103#C004000000000000
(1607303790.485527) can0 116#5D040000000000FF
(1607303790.486897) can0 321#8013
(1607303790.487023) can0 320#003E0000
(1607303790.488397) can0 0A7#F2DF5F7FFDF5D71D
(1607303790.491021) can0 397#0040000000FA1F00
(1607303790.492396) can0 0A0#3D08000000009033
(1607303790.492523) can0 1A8#A4160001E0FF0300
(1607303790.493897) can0 462#0000380000010000
(1607303790.494024) can0 0A8#D4E09F487F640000
(1607303790.499147) can0 30B#100A000008000020
(1607303790.501771) can0 17F#A60D000000000000
(1607303790.501897) can0 322#72ED7FFFF30F0000
(1607303790.503271) can0 0A0#DB09000000009033
(1607303790.503397) can0 663#600020080092000C
(1607303790.503522) can0 3D5#6D02000414000000
(1607303790.504896) can0 54B#0000000000000000
(1607303790.505023) can0 0A8#AEE19F487F640000
(1607303790.505027) can0 0FD#9FE53F0000000000
(1607303790.505030) can0 103#A405000000000000
(1607303790.505148) can0 116#39050000000000FF
(1607303790.505151) can0 3C0#11042300
(1607303790.506521) can0 5F4#0000630080002400
(1607303790.506647) can0 6A6#1000020000000000
(1607303790.508021) can0 0A7#B3D15F7FFDF5D71D
(1607303790.508147) can0 326#FFFFFFFFFFFFFFF1
(1607303790.508151) can0 327#3D28FC3AFB6FFB20
(1607303790.509522) can0 328#FFFFFFFFFFFFFFF1
(1607303790.509647) can0 329#FFFFFFFFFFFFFFF1
(1607303790.512270) can0 189#8812
(1607303790.512397) can0 313#9B0694E0FF81FFFF
(1607303790.512401) can0 314#FF81FFFFFF81FFFF
(1607303790.512404) can0 0A0#1F0A000000009033
(1607303790.512522) can0 1A8#CF170001E0FF0300
(1607303790.513895) can0 1FC#7584000000006000
(1607303790.514023) can0 315#FF81FFFFFF81FFFF
(1607303790.514026) can0 640#807E94BB7E421000
(1607303790.514147) can0 0A8#42E29F487F640000
(1607303790.521782) can0 3D0#020000008C000300
(1607303790.521898) can0 2B7#060E0000000000FE
(1607303790.521902) can0 30F#730E720000000000
(1607303790.523271) can0 0A0#560B000000009033
(1607303790.524652) can0 040#4B0C008081000024
(1607303790.524775) can0 0A8#ADE39F487F640000
(1607303790.524779) can0 0FD#8DE63F0000000000
(1607303790.524782) can0 103#0806000000000000
(1607303790.524898) can0 116#95060000000000FF
(1607303790.526271) can0 321#3815
(1607303790.526396) can0 320#003E0000
(1607303790.526522) can0 15C#000000000000FEFF
(1607303790.527895) can0 1B00002A#2A40080100000000
(1607303790.528031) can0 3F3#007F00FE65D2FF27
(1607303790.528035) can0 0A7#46D35F7FFDF5D71D
(1607303790.528146) can0 121#EA03000020427EFE
(1607303790.528278) can0 12DD5461#00000000004013D0
(1607303790.529647) can0 17330A10#32900409
(1607303790.529772) can0 3BE#3C28970142000080
(1607303790.532395) can0 0A0#E10C000000009033
(1607303790.532522) can0 1A8#C218000120000400
(1607303790.533895) can0 0A8#01E49F487F640000
(1607303790.535271) can0 3C1#0008000ABE020000
(1607303790.536645) can0 1B000069#6940080100000000
(1607303790.541769) can0 17F#630E000000000000
(1607303790.541896) can0 322#E0EE7FFFF30F0000
(1607303790.543270) can0 0A0#C50D000000009033
(1607303790.543396) can0 463#00E03F0000000000
(1607303790.544769) can0 0FD#B7E73F0000000000
(1607303790.544895) can0 0A8#6BE59F487F640000
(1607303790.544899) can0 103#6C07000000000000
(1607303790.544902) can0 116#F1070000000000FF
(1607303790.548769) can0 0A7#07D55F7FFDF5D71D
(1607303790.548896) can0 326#FFFFFFFFFFFFFFF1
(1607303790.548900) can0 327#3D28DC3AF96FFB20
(1607303790.548903) can0 328#FFFFFFFFFFFFFFF1
(1607303790.549021) can0 329#FFFFFFFFFFFFFFF1
(1607303790.549025) can0 3F2#0007000000007D00
(1607303790.549146) can0 30B#100B000008000020
(1607303790.550519) can0 3B5#840020001C002800
(1607303790.550646) can0 1B00008A#8A40080100000000
(1607303790.552019) can0 189#8812
(1607303790.552146) can0 313#9B0694E0FF81FFFF
(1607303790.552149) can0 314#FF81FFFFFF81FFFF
(1607303790.552274) can0 0A0#5B0E000000009033
(1607303790.552395) can0 1A8#C709000120000400
(1607303790.553769) can0 315#FF81FFFFFF81FFFF
(1607303790.553896) can0 395#100640047D7D6B0C
(1607303790.553899) can0 0A8#5BE69F487F640000
(1607303790.557769) can0 65D#F83630120008348E
(1607303790.562893) can0 0A0#B50F000000009033
(1607303790.564269) can0 040#D20D008081000026
(1607303790.564396) can0 0A8#4EE79F487F640000
(1607303790.564399) can0 0FD#70E83F0000000000
(1607303790.564520) can0 103#2E08000000000000
(1607303790.565894) can0 116#B3080000000000FF
(1607303790.566021) can0 497#0000000096940060
(1607303790.566025) can0 321#1016
(1607303790.566028) can0 320#003E0000
(1607303790.567394) can0 3D4#170C800600000000
(1607303790.568769) can0 0A7#1DD75F7FFDF5D71D
(1607303790.568894) can0 0AD#26ECBFFF8B140000
(1607303790.571518) can0 397#0040000000FA1F00
(1607303790.571645) can0 2B7#AF0F0000000000FE
(1607303790.573018) can0 30F#170F720000000000
(1607303790.573145) can0 0A0#9800000000009033
(1607303790.573149) can0 1A8#071A000120000400
(1607303790.574518) can0 0A8#6CE89F487F640000
(1607303790.578393) can0 121#F708000020427EFE
(1607303790.582268) can0 17F#4B0F000000000000
(1607303790.582395) can0 322#FEEF7FFFF30F0000
(1607303790.582398) can0 0A0#9101000000009033
(1607303790.582520) can0 391#00846AFFFF260000
(1607303790.583893) can0 0FD#42E93F0000000000
(1607303790.585268) can0 0A8#1EE99F487F640000
(1607303790.585395) can0 103#4A09000000000000
(1607303790.585398) can0 116#D7090000000000FF
(1607303790.588020) can0 0A7#80D95F7FFDF5D71D
(1607303790.588149) can0 326#FFFFFFFFFFFFFFF1
(1607303790.588152) can0 327#3D28DC3AF96FFB20
(1607303790.589518) can0 328#FFFFFFFFFFFFFFF1
(1607303790.589644) can0 329#FFFFFFFFFFFFFFF1
(1607303790.592269) can0 189#8812
(1607303790.592396) can0 313#9B0694E0FF81FFFF
(1607303790.592399) can0 314#FF81FFFFFF81FFFF
(1607303790.592403) can0 0A0#9E02000000009033
(1607303790.592519) can0 1A8#C71B000120000400
(1607303790.592644) can0 315#FF81FFFFFF81FFFF
(1607303790.594017) can0 464#03E86C6EDDED0C45
(1607303790.594144) can0 0A8#41EA9F487F640000
(1607303790.600518) can0 30B#100C000008000020
(1607303790.603142) can0 0A0#1403000000009033
(1607303790.603269) can0 663#600020080092000C
(1607303790.603394) can0 1B000010#1050040900030000
(1607303790.604770) can0 3C1#0008000ABE020000
(1607303790.604903) can0 040#D30E008081000028
(1607303790.604906) can0 0A8#8CEB9F487F640000
(1607303790.604910) can0 0FD#0EEA3F0000000000
(1607303790.605019) can0 103#E60A000000000000
(1607303790.605022) can0 116#7B0A0000000000FF
(1607303790.605144) can0 3D5#6103000414000000
(1607303790.605272) can0 3C0#A4052300
(1607303790.606644) can0 5A0#BEE2812E78000000
(1607303790.606770) can0 5F0#D200634C0B7E0000
(1607303790.606774) can0 320#003E0000
(1607303790.606777) can0 321#E816
(1607303790.606895) can0 5E1#AD0A000000000000
(1607303790.608267) can0 0A7#E8DB5F7FFDF5D71D
(1607303790.608394) can0 1AB#488A840A00000000
(1607303790.611018) can0 6B7#4301D008000E009B
(1607303790.612392) can0 0A0#FD04000000009033
(1607303790.612518) can0 1A8#281C000120000400
(1607303790.612643) can0 1A2#DA09702430028002
(1607303790.612768) can0 1FC#9889000000006000
(1607303790.614142) can0 0A8#92EC9F487F640000
(1607303790.621766) can0 3D0#020000008C000300
(1607303790.621893) can0 17F#DA00000000000000
(1607303790.622018) can0 2A1#0000000000000000
(1607303790.622143) can0 0A0#ED05000000009033
(1607303790.623516) can0 2B7#8D000000000000FE
(1607303790.623643) can0 30F#5500720000000000
(1607303790.623647) can0 322#8BE07FFFF30F0000
(1607303790.623650) can0 6AE#0000100000000000
(1607303790.625017) can0 0FD#21EB3F0000000000
(1607303790.625143) can0 0A8#81ED9F487F640000
(1607303790.625147) can0 103#820B000000000000
(1607303790.625150) can0 116#1F0B0000000000FF
(1607303790.626516) can0 15C#000000000000FEFF
(1607303790.627891) can0 3F3#007000FE65D2FF27
(1607303790.628018) can0 12DD5461#00000000004013D0
(1607303790.628022) can0 0A7#A7DD5F7FFDF5D71D
(1607303790.628146) can0 121#100D000020427EFE
(1607303790.629516) can0 326#FFFFFFFFFFFFFFF1
(1607303790.629643) can0 327#3D28FC3AFB6FFB20
(1607303790.629647) can0 328#FFFFFFFFFFFFFFF1
(1607303790.629650) can0 329#FFFFFFFFFFFFFFF1
(1607303790.629769) can0 3F2#0008000000007D00
(1607303790.629772) can0 3BE#1F29970142000080
(1607303790.631148) can0 583#0010050000084000
(1607303790.631270) can0 6B4#0000000000574155
(1607303790.632643) can0 189#8812
(1607303790.632769) can0 313#9B0694E0FF81FFFF
(1607303790.632772) can0 314#FF81FFFFFF81FFFF
(1607303790.632775) can0 0A0#3006000000009033
(1607303790.634142) can0 1A8#A10D0001E0FF0300
(1607303790.634152) can0 18A#0000211400000000
(1607303790.634155) can0 315#FF81FFFFFF81FFFF
(1607303790.634268) can0 670#1B10100000010064
(1607303790.634272) can0 0A8#33EE9F487F640000
(1607303790.643141) can0 0A0#A107000000009033
(1607303790.643267) can0 462#0000380000010000
(1607303790.644640) can0 040#4A0F00808100002A
(1607303790.644768) can0 0A8#BCEF9F487F640000
(1607303790.644771) can0 0FD#B8EC3F0000000000
(1607303790.644774) can0 103#910C000000000000
(1607303790.644893) can0 116#0C0C0000000000FF
(1607303790.646266) can0 321#A818
(1607303790.646392) can0 320#003E0000
(1607303790.647766) can0 0A7#F2DF5F7FFDF5D71D
(1607303790.649140) can0 3B5#840020001C002800
(1607303790.650515) can0 668#020000000010001C
(1607303790.650642) can0 30B#100D000008000020
(1607303790.652016) can0 397#0040000000FA1F00
(1607303790.652142) can0 0A0#3D08000000009033
(1607303790.652267) can0 1A8#811E0001E0FF0300
(1607303790.653640) can0 395#100740047D7D6B0C
(1607303790.653766) can0 3C1#0008000A82020000
(1607303790.655140) can0 0A8#D4E09F487F640000
(1607303790.662767) can0 1B00004E#4E40040900010000
(1607303790.662893) can0 17F#2501000000000000
(1607303790.662896) can0 0A0#DB09000000009033
(1607303790.662900) can0 322#CAE17FFFF30F0000
(1607303790.663017) can0 17330B10#32D505
(1607303790.664390) can0 497#0000000096940060
(1607303790.664521) can0 0A8#AEE19F487F640000
(1607303790.664525) can0 0FD#31ED3F0000000000
(1607303790.664529) can0 103#F50D000000000000
(1607303790.664649) can0 116#680D0000000000FF
(1607303790.668520) can0 0A7#B3D15F7FFDF5D71D
(1607303790.668643) can0 0AD#63E6BFFF8B140000
(1607303790.668646) can0 326#FFFFFFFFFFFFFFF1
(1607303790.668650) can0 327#FFFFFFFFFFFFFFF1
(1607303790.668767) can0 328#FFFFFFFFFFFFFFF1
(1607303790.668891) can0 329#FFFFFFFFFFFFFFF1
(1607303790.671515) can0 534#0000000000500000
(1607303790.671641) can0 189#C816
(1607303790.671766) can0 2B7#DC010000000000FE
(1607303790.673140) can0 30F#3101720000000000
(1607303790.673267) can0 0A0#1F0A000000009033
(1607303790.673270) can0 1A8#F21F0001E0FF0300
(1607303790.673274) can0 313#9B8694DEFF81FFFF
(1607303790.673392) can0 314#FF81FFFFFF81FFFF
(1607303790.673395) can0 315#FF81FFFFFF81FFFF
(1607303790.674765) can0 0A8#42E29F487F640000
(1607303790.678640) can0 121#1802000020427EFE
(1607303790.682518) can0 0A0#560B000000009033
(1607303790.683890) can0 040#200000808100002C
(1607303790.685264) can0 0A8#ADE39F487F640000
(1607303790.685391) can0 0FD#CEEE3F0000000000
(1607303790.685395) can0 103#590E000000000000
(1607303790.685398) can0 116#C40E0000000000FF
(1607303790.686764) can0 321#8819
(1607303790.686890) can0 320#003E0000
(1607303790.688264) can0 0A7#46D35F7FFDF5D71D
(1607303790.692141) can0 0A0#E10C000000009033
(1607303790.692265) can0 1A8#0B100001E0FF0300
(1607303790.693639) can0 16A955EC#0000000700000000
(1607303790.693765) can0 463#00E03F0000000000
(1607303790.693890) can0 0A8#01E49F487F640000
(1607303790.700264) can0 30B#100E000008000020
(1607303790.701639) can0 17F#B002000000000000
(1607303790.703013) can0 322#FAE27FFFF30F0000
(1607303790.703140) can0 0A0#C50D000000009033
(1607303790.703144) can0 17331A10#36910400
(1607303790.703147) can0 663#600020080092000C
(1607303790.704514) can0 3D5#C104000414000000
(1607303790.704641) can0 0FD#59EF3F0000000000
(1607303790.704644) can0 0A8#6BE59F487F640000
(1607303790.704648) can0 103#3D0F000000000000
(1607303790.704766) can0 116#A00F0000000000FF
(1607303790.704769) can0 3C0#54062300
(1607303790.708638) can0 0A7#07D55F7FFDF5D71D
(1607303790.708766) can0 326#FFFFFFFFFFFFFFF1
(1607303790.708769) can0 327#FFFFFFFFFFFFFFF1
(1607303790.708772) can0 328#FFFFFFFFFFFFFFF1
(1607303790.708890) can0 329#FFFFFFFFFFFFFFF1
(1607303790.708894) can0 3F2#0009000000007D00
(1607303790.710263) can0 17F00064#0064000000000000
(1607303790.710390) can0 67C#0000130300000000
(1607303790.711763) can0 17F0008A#208A000000140120
(1607303790.711890) can0 189#C816
(1607303790.711893) can0 313#9B8694DEFF81FFFF
(1607303790.712015) can0 314#FF81FFFFFF81FFFF
(1607303790.712140) can0 0A0#5B0E000000009033
(1607303790.713513) can0 1A8#D701000120000400
(1607303790.713640) can0 1FC#AE8E000000006000
(1607303790.713643) can0 315#FF81FFFFFF81FFFF
(1607303790.713647) can0 5F8#0000130000000000
(1607303790.713768) can0 17F0001C#001C000000000000
(1607303790.713889) can0 58F#0000FEBBFE0E0000
(1607303790.714014) can0 0A8#5BE69F487F640000
(1607303790.717888) can0 65D#6F3830120008348E
(1607303790.719263) can0 1A555496#0000000000000047
(1607303790.721888) can0 3D0#020000008C000300
(1607303790.722014) can0 2B7#04020000000000FE
(1607303790.722018) can0 30F#9D02720000000000
(1607303790.723388) can0 0A0#B50F000000009033
(1607303790.724764) can0 040#B90100808100002E
(1607303790.724892) can0 0A8#4EE79F487F640000
(1607303790.724896) can0 0FD#23E03F0000000000
(1607303790.724900) can0 103#7F00000000000000
(1607303790.725016) can0 116#E2000000000000FF
(1607303790.726390) can0 321#481B
(1607303790.726515) can0 320#003E0000
(1607303790.726639) can0 15C#000000000000FEFF
(1607303790.728013) can0 1B00002A#2A40080100000000
(1607303790.728140) can0 3F3#007100FE65D2FF27
(1607303790.728143) can0 0A7#1DD75F7FFDF5D71D
(1607303790.728147) can0 121#3407000020427EFE
(1607303790.728264) can0 12DD5461#00000000004013D0
(1607303790.729637) can0 16A9540F#C7C5187E00006A8F
(1607303790.729764) can0 3BE#D42A970142000080
(1607303790.729768) can0 5E3#008DFF45FD00FE00
(1607303790.729771) can0 5E4#000700000000FFF0
(1607303790.729889) can0 5F6#0009004000003000
(1607303790.729893) can0 17F0002A#202A0000001E0120
(1607303790.731263) can0 1A555455#4445463936394858
(1607303790.731393) can0 1A555456#3431302430303139
(1607303790.731396) can0 1A555483#0000000000900090
(1607303790.731400) can0 397#0040000000FA1F00
(1607303790.731515) can0 1A555484#0000008F00000000
(1607303790.731641) can0 1A5554A9#3046454430303030
(1607303790.733013) can0 1A5554AA#3030303030303030
(1607303790.733139) can0 0A0#9800000000009033
(1607303790.733143) can0 1A8#0002000120000400
(1607303790.734512) can0 0A8#6CE89F487F640000
(1607303790.737137) can0 1B000069#6940080100000000
(1607303790.742265) can0 17F#1D03000000000000
(1607303790.742391) can0 322#BFE37FFFF30F0000
(1607303790.742394) can0 0A0#9101000000009033
(1607303790.742398) can0 17F0004E#204E000000140120
(1607303790.743762) can0 464#081A000000000000
(1607303790.743888) can0 0FD#29E13F0000000000
(1607303790.745262) can0 0A8#1EE99F487F640000
(1607303790.745389) can0 103#1B01000000000000
(1607303790.745392) can0 116#86010000000000FF
(1607303790.748012) can0 0A7#80D95F7FFDF5D71D
(1607303790.748138) can0 326#FFFFFFFFFFFFFFF1
(1607303790.748263) can0 327#FFFFFFFFFFFFFFF1
(1607303790.748388) can0 328#FFFFFFFFFFFFFFF1
(1607303790.749762) can0 329#FFFFFFFFFFFFFFF1
(1607303790.749890) can0 3B5#840020001C002800
(1607303790.751262) can0 30B#100F000008000020
(1607303790.751388) can0 1B00008A#8A40080100000000
(1607303790.751513) can0 189#C816
(1607303790.752892) can0 313#9B8694DEFF81FFFF
(1607303790.753016) can0 314#FF81FFFFFF81FFFF
(1607303790.753019) can0 0A0#9E02000000009033
(1607303790.753023) can0 1A8#1D030001E0FF0300
(1607303790.753141) can0 315#FF81FFFFFF81FFFF
(1607303790.753145) can0 481#000000010000E0FE
(1607303790.753265) can0 1A555548#0000000000000000
(1607303790.754636) can0 395#100840047D7D6B0C
(1607303790.754763) can0 0A8#41EA9F487F640000
(1607303790.762387) can0 0A0#1403000000009033
(1607303790.763766) can0 497#0000000096940060
(1607303790.765143) can0 040#9D02008081000030
(1607303790.765263) can0 0A8#8CEB9F487F640000
(1607303790.765267) can0 0FD#E6E23F0000000000
(1607303790.765270) can0 103#B702000000000000
(1607303790.765388) can0 116#2A020000000000FF
(1607303790.766761) can0 321#301C
(1607303790.766887) can0 320#003E0000
(1607303790.767013) can0 3D4#E80D800600000000
(1607303790.768386) can0 0A7#E8DB5F7FFDF5D71D
(1607303790.768513) can0 0AD#41E0BFFF8B140000
(1607303790.768516) can0 17F00010#2010500000000580
(1607303790.772386) can0 2B7#5D030000000000FE
(1607303790.772513) can0 30F#F903720000000000
(1607303790.772516) can0 0A0#FD04000000009033
(1607303790.772520) can0 1A8#C404000120000400
(1607303790.773886) can0 0A8#92EC9F487F640000
(1607303790.775261) can0 3C1#0008000A86020000
(1607303790.777886) can0 121#030C000020427EFE
(1607303790.781760) can0 17F#AC04000000000000
(1607303790.781887) can0 322#50E47FFFF30F0000
(1607303790.783260) can0 0A0#ED05000000009033
(1607303790.783387) can0 391#00846AFFFF260000
(1607303790.784760) can0 0FD#93E33F0000000000
(1607303790.784887) can0 0A8#81ED9F487F640000
(1607303790.784890) can0 103#D303000000000000
(1607303790.784893) can0 116#4E030000000000FF
(1607303790.788760) can0 0A7#A7DD5F7FFDF5D71D
(1607303790.788887) can0 326#FFFFFFFFFFFFFFF1
(1607303790.788891) can0 327#3D28DC3AF96FFB20
(1607303790.788894) can0 328#FFFFFFFFFFFFFFF1
(1607303790.789012) can0 329#FFFFFFFFFFFFFFF1
(1607303790.789016) can0 3F2#000A000000007D00
(1607303790.791637) can0 189#981A
(1607303790.791762) can0 313#9A8694DEFF81FFFF
(1607303790.791886) can0 314#FF81FFFFFF81FFFF
(1607303790.793260) can0 0A0#3006000000009033
(1607303790.793387) can0 1A8#9905000120000400
(1607303790.793391) can0 315#FF81FFFFFF81FFFF
(1607303790.793394) can0 462#0000380000010000
(1607303790.794760) can0 0A8#33EE9F487F640000
(1607303790.801134) can0 30B#1000000008000020
(1607303790.802511) can0 0A0#A107000000009033
(1607303790.802636) can0 663#600020080092000C
(1607303790.804010) can0 1B000010#1050040900030000
(1607303790.804136) can0 3C1#0008000A86020000
(1607303790.804140) can0 040#0403008081000032
(1607303790.804261) can0 0A8#BCEF9F487F640000
(1607303790.804386) can0 0FD#05E43F0000000000
(1607303790.805762) can0 103#C004000000000000
(1607303790.805886) can0 116#5D040000000000FF
(1607303790.805889) can0 3D5#4A05000414000000
(1607303790.805892) can0 3C0#E1072300
(1607303790.806012) can0 5A0#BEE2812E78000000
(1607303790.806015) can0 5F0#D200634C0B7E0000
(1607303790.806019) can0 320#003E0000
(1607303790.806135) can0 321#081D
(1607303790.807510) can0 5E1#AD0A000000000000
(1607303790.807636) can0 0A7#F2DF5F7FFDF5D71D
(1607303790.809010) can0 1AB#9C84840A00000000
(1607303790.811634) can0 397#0040000000FA1F00
(1607303790.813009) can0 0A0#3D08000000009033
(1607303790.813136) can0 1A8#FE06000120000400
(1607303790.813140) can0 1A2#E703702430028002
(1607303790.813143) can0 1FC#0E83000000006000
(1607303790.814509) can0 0A8#D4E09F487F640000
(1607303790.822134) can0 17F#F905000000000000
(1607303790.822261) can0 3D0#020000008C000300
(1607303790.822264) can0 0A0#DB09000000009033
(1607303790.822385) can0 2A1#0000000000000000
(1607303790.823759) can0 2B7#ED040000000000FE
(1607303790.823886) can0 30F#EA04720000000000
(1607303790.823889) can0 322#47E57FFFF30F0000
(1607303790.823893) can0 0FD#9FE53F0000000000
(1607303790.825259) can0 0A8#AEE19F487F640000
(1607303790.825386) can0 103#A405000000000000
(1607303790.825389) can0 116#39050000000000FF
(1607303790.826759) can0 15C#000000000000FEFF
(1607303790.828134) can0 17F00069#2069000000000120
(1607303790.828261) can0 3F3#007200FE65D2FF27
(1607303790.828265) can0 12DD5461#00000000004013D0
(1607303790.828268) can0 0A7#B3D15F7FFDF5D71D
(1607303790.828386) can0 121#9701000020427EFE
(1607303790.828389) can0 326#FFFFFFFFFFFFFFF1
(1607303790.829759) can0 327#3D28FC3AFB6FFB20
(1607303790.829886) can0 328#FFFFFFFFFFFFFFF1
(1607303790.829889) can0 329#FFFFFFFFFFFFFFF1
(1607303790.829894) can0 3BE#A22B970142000080
(1607303790.830010) can0 1F1#000000E007800000
(1607303790.830135) can0 366#00000020200000F0
(1607303790.831508) can0 583#0010050000084000
(1607303790.831635) can0 16A9540A#0000000000000000
(1607303790.831639) can0 189#981A
(1607303790.833010) can0 313#9A8694DEFF81FFFF
(1607303790.833136) can0 0A0#1F0A000000009033
(1607303790.833144) can0 1A8#9507000120000400
(1607303790.833147) can0 314#FF81FFFFFF81FFFF
(1607303790.833262) can0 18A#0000211400000000
(1607303790.833265) can0 315#FF81FFFFFF81FFFF
(1607303790.834633) can0 6B4#0232313038383636
(1607303790.834760) can0 0A8#42E29F487F640000
(1607303790.834764) can0 640#807E94BB7E421000
(1607303790.842383) can0 0A0#560B000000009033
(1607303790.842510) can0 463#00E03F0000000000
(1607303790.843884) can0 040#3F04008081000034
(1607303790.845258) can0 0A8#ADE39F487F640000
(1607303790.845385) can0 0FD#8DE63F0000000000
(1607303790.845388) can0 103#0806000000000000
(1607303790.845392) can0 116#95060000000000FF
(1607303790.846758) can0 321#D01E
(1607303790.846888) can0 320#003E0000
(1607303790.848261) can0 0A7#46D35F7FFDF5D71D
(1607303790.849633) can0 3B5#840020001C002800
(1607303790.849759) can0 668#020000000010001C
(1607303790.851133) can0 30B#1001000008000020
(1607303790.852508) can0 0A0#E10C000000009033
(1607303790.852634) can0 1A8#6008000120000400
(1607303790.854008) can0 395#100940047D7D6B0C
(1607303790.854134) can0 0A8#01E49F487F640000
(1607303790.861758) can0 1B00004E#4E40040900010000
(1607303790.861884) can0 17F#0606000000000000
(1607303790.862009) can0 0A0#C50D000000009033
(1607303790.863382) can0 322#E9E67FFFF30F0000
(1607303790.864757) can0 497#0000000096940060
(1607303790.864883) can0 0A8#6BE59F487F640000
(1607303790.864887) can0 0FD#B7E73F0000000000
(1607303790.864890) can0 103#6C07000000000000
(1607303790.865009) can0 116#F1070000000000FF
(1607303790.867632) can0 0A7#07D55F7FFDF5D71D
(1607303790.869010) can0 0AD#FEEABFFF8B140000
(1607303790.869135) can0 326#FFFFFFFFFFFFFFF1
(1607303790.869139) can0 327#3D28FC3AFB6FFB20
(1607303790.869142) can0 328#FFFFFFFFFFFFFFF1
(1607303790.869260) can0 329#FFFFFFFFFFFFFFF1
(1607303790.869263) can0 3F2#000B000000007D00
(1607303790.871882) can0 534#0000000000500000
(1607303790.872009) can0 189#981A
(1607303790.872012) can0 2B7#15050000000000FE
(1607303790.872016) can0 30F#8E05720000000000
(1607303790.872134) can0 0A0#5B0E000000009033
(1607303790.873507) can0 1A8#6519000120000400
(1607303790.873634) can0 313#9A8694DEFF81FFFF
(1607303790.873638) can0 314#FF81FFFFFF81FFFF
(1607303790.873641) can0 315#FF81FFFFFF81FFFF
(1607303790.875007) can0 0A8#5BE69F487F640000
(1607303790.877632) can0 121#6706000020427EFE
(1607303790.877759) can0 65D#3D3A30120008348E
(1607303790.882882) can0 0A0#B50F000000009033
(1607303790.884257) can0 040#A605008081000036
(1607303790.884383) can0 0A8#4EE79F487F640000
(1607303790.884387) can0 0FD#70E83F0000000000
(1607303790.884508) can0 103#2E08000000000000
(1607303790.885882) can0 116#B3080000000000FF
(1607303790.886008) can0 321#901F
(1607303790.886133) can0 320#003E0000
(1607303790.888756) can0 0A7#1DD75F7FFDF5D71D
(1607303790.891381) can0 397#0040000000FA1F00
(1607303790.892757) can0 0A0#9800000000009033
(1607303790.892884) can0 1A8#FF1A0001E0FF0300
(1607303790.892887) can0 464#081A000000000000
(1607303790.894256) can0 3C1#0008000A8A020000
(1607303790.894382) can0 0A8#6CE89F487F640000
(1607303790.902007) can0 30B#1002000008000020
(1607303790.902133) can0 17F#0D07000000000000
(1607303790.902136) can0 322#55E77FFFF30F0000
(1607303790.902140) can0 0A0#9101000000009033
(1607303790.903506) can0 663#600020080092000C
(1607303790.903632) can0 3D5#D506000414000000
(1607303790.905007) can0 0FD#42E93F0000000000
(1607303790.905133) can0 0A8#1EE99F487F640000
(1607303790.905136) can0 103#4A09000000000000
(1607303790.905140) can0 116#D7090000000000FF
(1607303790.905257) can0 3C0#A0082300
(1607303790.907882) can0 0A7#80D95F7FFDF5D71D
(1607303790.908008) can0 326#FFFFFFFFFFFFFFF1
(1607303790.908137) can0 327#3D28DC3AF96FFB20
(1607303790.909510) can0 328#FFFFFFFFFFFFFFF1
(1607303790.909633) can0 329#FFFFFFFFFFFFFFF1
(1607303790.912255) can0 189#A01E
(1607303790.912382) can0 313#9A0694DCFF81FFFF
(1607303790.912392) can0 314#FF81FFFFFF81FFFF
(1607303790.912396) can0 0A0#9E02000000009033
(1607303790.912507) can0 1A8#3F1B0001E0FF0300
(1607303790.912632) can0 1FC#0788000000006000
(1607303790.914010) can0 315#FF81FFFFFF81FFFF
(1607303790.914132) can0 0A8#41EA9F487F640000
(1607303790.921755) can0 2B7#C3060000000000FE
(1607303790.921882) can0 3D0#020000008C000300
(1607303790.923255) can0 0A0#1403000000009033
(1607303790.923381) can0 30F#2206720000000000
(1607303790.924755) can0 040#A706008081000038
(1607303790.924889) can0 0A8#8CEB9F487F640000
(1607303790.924892) can0 0FD#0EEA3F0000000000
(1607303790.924896) can0 103#E60A000000000000
(1607303790.925007) can0 116#7B0A0000000000FF
(1607303790.926386) can0 321#6821
(1607303790.926509) can0 320#003E0000
(1607303790.926513) can0 15C#000000000000FEFF
(1607303790.927880) can0 1B00002A#2A40080100000000
(1607303790.928007) can0 3F3#007300FE65D2FF27
(1607303790.928010) can0 0A7#E8DB5F7FFDF5D71D
(1607303790.928131) can0 121#C60B000020427EFE
(1607303790.928256) can0 12DD5461#00000000004013D0
(1607303790.929630) can0 3BE#272C970142000080
(1607303790.932255) can0 0A0#FD04000000009033
(1607303790.932381) can0 1A8#720C0001E0FF0300
(1607303790.935005) can0 0A8#92EC9F487F640000
(1607303790.936380) can0 1B000069#6940080100000000
(1607303790.942755) can0 17F#C608000000000000
(1607303790.942883) can0 322#98E87FFFF30F0000
(1607303790.942887) can0 0A0#ED05000000009033
(1607303790.942892) can0 462#0000380000010000
(1607303790.944256) can0 0FD#21EB3F0000000000
(1607303790.944381) can0 0A8#81ED9F487F640000
(1607303790.944385) can0 103#820B000000000000
(1607303790.945760) can0 116#1F0B0000000000FF
(1607303790.948379) can0 0A7#A7DD5F7FFDF5D71D
(1607303790.948506) can0 326#FFFFFFFFFFFFFFF1
(1607303790.948510) can0 327#3D28FC3AFB6FFB20
(1607303790.948513) can0 328#FFFFFFFFFFFFFFF1
(1607303790.948635) can0 329#FFFFFFFFFFFFFFF1
(1607303790.950004) can0 3F2#000C000000007D00
(1607303790.950130) can0 3B5#840020001C002800
(1607303790.951504) can0 1B00008A#8A40080100000000
(1607303790.951631) can0 30B#1003000008000020
(1607303790.951634) can0 189#A01E
(1607303790.951756) can0 313#9A0694DCFF81FFFF
(1607303790.951880) can0 314#FF81FFFFFF81FFFF
(1607303790.953254) can0 0A0#3006000000009033
(1607303790.953381) can0 1A8#590D000120000400
(1607303790.953384) can0 315#FF81FFFFFF81FFFF
(1607303790.953506) can0 395#100A40047D7D6B0C
(1607303790.954879) can0 0A8#33EE9F487F640000
(1607303790.962506) can0 0A0#A107000000009033
(1607303790.963891) can0 497#0000000096940060
(1607303790.964016) can0 040#3E0700808100003A
(1607303790.965393) can0 0A8#BCEF9F487F640000
(1607303790.965521) can0 0FD#B8EC3F0000000000
(1607303790.965527) can0 103#910C000000000000
(1607303790.965533) can0 116#0C0C0000000000FF
(1607303790.966892) can0 321#3822
(1607303790.967017) can0 320#003E0000
(1607303790.967142) can0 3D4#970E800600000000
(1607303790.968515) can0 0A7#F2DF5F7FFDF5D71D
(1607303790.968642) can0 0AD#48E4BFFF8B140000
(1607303790.971265) can0 397#0040000000FA1F00
(1607303790.972640) can0 2B7#91070000000000FE
(1607303790.972767) can0 30F#4607720000000000
(1607303790.972773) can0 0A0#3D08000000009033
(1607303790.972778) can0 1A8#791E000120000400
(1607303790.974140) can0 0A8#D4E09F487F640000
(1607303790.978014) can0 121#FB00000020427EFE
(1607303790.981889) can0 17F#CB09000000000000
(1607303790.982016) can0 322#ADE97FFFF30F0000
(1607303790.982141) can0 0A0#DB09000000009033
(1607303790.983515) can0 391#00846AFFFF260000
(1607303790.984890) can0 0FD#31ED3F0000000000
(1607303790.985017) can0 0A8#AEE19F487F640000
(1607303790.985022) can0 103#F50D000000000000
(1607303790.985028) can0 116#680D0000000000FF
(1607303790.987639) can0 0A7#B3D15F7FFDF5D71D
(1607303790.989014) can0 326#FFFFFFFFFFFFFFF1
(1607303790.989142) can0 327#3D28FC3AFB6FFB20
(1607303790.989147) can0 328#FFFFFFFFFFFFFFF1
(1607303790.989153) can0 329#FFFFFFFFFFFFFFF1
(1607303790.991764) can0 189#A01E
(1607303790.991892) can0 313#9A0694DCFF81FFFF
(1607303790.992016) can0 314#FF81FFFFFF81FFFF
(1607303790.992141) can0 0A0#1F0A000000009033
(1607303790.993513) can0 1A8#0A1F000120000400
(1607303790.993641) can0 315#FF81FFFFFF81FFFF
(1607303790.993647) can0 463#00E03F0000000000
(1607303790.993764) can0 641#2B6E3FC8061EFF5A
(1607303790.995138) can0 0A8#42E29F487F640000
(1607303791.001513) can0 30B#1004000008000020
(1607303791.002893) can0 0A0#560B000000009033
(1607303791.003016) can0 663#600020080092000C
(1607303791.004388) can0 1B000010#1050040900030000
(1607303791.004516) can0 3C1#0008000A8A020000
(1607303791.004522) can0 040#540800808100003C
(1607303791.004527) can0 0A8#ADE39F487F640000
(1607303791.004640) can0 0FD#CEEE3F0000000000
(1607303791.004646) can0 103#590E000000000000
(1607303791.006013) can0 116#C40E0000000000FF
(1607303791.006148) can0 3D5#CE07000414000000
(1607303791.006153) can0 3C0#15092300
(1607303791.006159) can0 54B#0000000000000000
(1607303791.006265) can0 598#000000000A800200
(1607303791.006270) can0 320#003E0000
(1607303791.006275) can0 321#1024
(1607303791.006389) can0 5F0#D200634C0B7E0000
(1607303791.007763) can0 5A0#BEE2812E78000000
(1607303791.007891) can0 5F4#0000630080002400
(1607303791.007897) can0 16A95495#0000000000000000
(1607303791.007902) can0 5E1#AD0A000000000000
(1607303791.008015) can0 0A7#46D35F7FFDF5D71D
(1607303791.008140) can0 1AB#FA8E840A00000000
(1607303791.009513) can0 658#0B03060000000100
(1607303791.009641) can0 65A#00000610002E0000
(1607303791.009646) can0 6A6#1000020000000000
(1607303791.012263) can0 0A0#E10C000000009033
(1607303791.012390) can0 1A8#0B100001E0FF0300
(1607303791.012522) can0 1A2#960D702430024002
(1607303791.013892) can0 1FC#DA8D000000006000
(1607303791.014018) can0 0A8#01E49F487F640000
(1607303791.021653) can0 17F#F70A000000000000
(1607303791.023015) can0 3D0#020000008C000300
(1607303791.023141) can0 0A0#C50D000000009033
(1607303791.023147) can0 2A1#0000000000000000
(1607303791.023153) can0 2B7#43080000000000FE
(1607303791.023264) can0 30F#0408720000000000
(1607303791.023270) can0 322#F3EA7FFFF30F0000
(1607303791.024638) can0 0FD#59EF3F0000000000
(1607303791.024766) can0 0A8#6BE59F487F640000
(1607303791.024772) can0 103#3D0F000000000000
(1607303791.024778) can0 116#A00F0000000000FF
(1607303791.027388) can0 15C#000000000000FEFF
(1607303791.027515) can0 3F3#007420FE65D2FF27
(1607303791.027640) can0 12DD5461#00000000004013D0
(1607303791.029012) can0 0A7#07D55F7FFDF5D71D
(1607303791.029140) can0 121#6005000020427EFE
(1607303791.029146) can0 326#FFFFFFFFFFFFFFF1
(1607303791.029152) can0 327#3D28DC3AFB6FFB20
(1607303791.029264) can0 328#FFFFFFFFFFFFFFF1
(1607303791.029270) can0 329#FFFFFFFFFFFFFFF1
(1607303791.029392) can0 3F2#000D000000007D00
(1607303791.030774) can0 3BE#9C2D970142000080
(1607303791.030892) can0 583#0010050000084000
(1607303791.031015) can0 6B4#0000000000574155
(1607303791.032389) can0 189#9022
(1607303791.032517) can0 313#9A0694DCFF81FFFF
(1607303791.032523) can0 314#FF81FFFFFF81FFFF
(1607303791.032529) can0 0A0#5B0E000000009033
(1607303791.032638) can0 1A8#2F010001E0FF0300
(1607303791.032644) can0 18A#0000211400000000
(1607303791.034012) can0 315#FF81FFFFFF81FFFF
(1607303791.034140) can0 3C1#0008000A8E020000
(1607303791.034146) can0 0A8#5BE69F487F640000
(1607303791.034151) can0 58F#0000FEBBFE0E0000
(1607303791.038012) can0 65D#783C30120008348E
(1607303791.039387) can0 1A555496#0000000000000047
(1607303791.042014) can0 0A0#B50F000000009033
(1607303791.043389) can0 464#081A000000000000
(1607303791.044762) can0 040#CD0900808100003E
(1607303791.044890) can0 0A8#4EE79F487F640000
(1607303791.044896) can0 0FD#23E03F0000000000
(1607303791.044902) can0 103#7F00000000000000
(1607303791.045013) can0 116#E2000000000000FF
(1607303791.046387) can0 321#C824
(1607303791.046514) can0 320#003E0000
(1607303791.047888) can0 0A7#1DD75F7FFDF5D71D
(1607303791.049262) can0 3B5#840020001C002800
(1607303791.050637) can0 668#020000000010001C
(1607303791.052012) can0 397#0040000000FA1F00
(1607303791.052140) can0 30B#1005000008000020
(1607303791.052146) can0 0A0#9800000000009033
(1607303791.052263) can0 1A8#5A120001E0FF0300
(1607303791.053636) can0 395#100B40047D7D6B0C
(1607303791.055012) can0 0A8#6CE89F487F640000
(1607303791.062638) can0 1B00004E#4E40040900010000
(1607303791.062764) can0 17F#180B000000000000
(1607303791.062769) can0 0A0#9101000000009033
(1607303791.062775) can0 322#24EB7FFFF30F0000
(1607303791.064137) can0 497#0000000096940060
(1607303791.064264) can0 0A8#1EE99F487F640000
(1607303791.064269) can0 0FD#29E13F0000000000
(1607303791.065636) can0 103#1B01000000000000
(1607303791.065764) can0 116#86010000000000FF
(1607303791.068385) can0 0A7#80D95F7FFDF5D71D
(1607303791.068514) can0 0AD#8DEEBFFF8B140000
(1607303791.068519) can0 326#FFFFFFFFFFFFFFF1
(1607303791.068525) can0 327#3D28FC3AFB6FFB20
(1607303791.068638) can0 328#FFFFFFFFFFFFFFF1
(1607303791.070019) can0 329#FFFFFFFFFFFFFFF1
(1607303791.071388) can0 534#0000000000500000
(1607303791.071513) can0 189#9022
(1607303791.071638) can0 2B7#2C090000000000FE
(1607303791.073012) can0 30F#6009720000000000
(1607303791.073139) can0 0A0#9E02000000009033
(1607303791.073145) can0 1A8#BF130001E0FF0300
(1607303791.073150) can0 313#9A0694DCFF81FFFF
(1607303791.073262) can0 314#FF81FFFFFF81FFFF
(1607303791.073268) can0 315#FF81FFFFFF81FFFF
(1607303791.074638) can0 0A8#41EA9F487F640000
(1607303791.078511) can0 121#6D0A000020427EFE
(1607303791.082385) can0 0A0#1403000000009033
(1607303791.085011) can0 040#370A008081000040
(1607303791.085139) can0 0A8#8CEB9F487F640000
(1607303791.085144) can0 0FD#E6E23F0000000000
(1607303791.085150) can0 103#B702000000000000
(1607303791.085262) can0 116#2A020000000000FF
(1607303791.086635) can0 321#8826
(1607303791.086763) can0 320#003E0000
(1607303791.088135) can0 0A7#E8DB5F7FFDF5D71D
(1607303791.092013) can0 0A0#FD04000000009033
(1607303791.093386) can0 1A8#3C040001E0FF0300
(1607303791.093513) can0 462#0000380000010000
(1607303791.094885) can0 0A8#92EC9F487F640000
(1607303791.101259) can0 30B#1006000008000020
(1607303791.102634) can0 17F#B40C000000000000
(1607303791.102763) can0 322#4BEC7FFFF30F0000
(1607303791.102769) can0 0A0#ED05000000009033
(1607303791.102774) can0 663#600020080092000C
(1607303791.104135) can0 3D5#CB08000414000000
(1607303791.104263) can0 5F0#D20063340B7E0000
(1607303791.104268) can0 0A8#81ED9F487F640000
(1607303791.104274) can0 0FD#93E33F0000000000
(1607303791.105635) can0 103#D303000000000000
(1607303791.105763) can0 116#4E030000000000FF
(1607303791.105768) can0 3C0#E50A2300
(1607303791.108385) can0 0A7#A7DD5F7FFDF5D71D
(1607303791.108515) can0 326#FFFFFFFFFFFFFFF1
(1607303791.108521) can0 327#3D28DC3AF96FFB20
(1607303791.108526) can0 328#FFFFFFFFFFFFFFF1
(1607303791.108652) can0 329#FFFFFFFFFFFFFFF1
(1607303791.110014) can0 3F2#000E000000007D00
(1607303791.112634) can0 189#9022
(1607303791.112762) can0 313#9A0694DCFF81FFFF
(1607303791.112770) can0 314#FF81FFFFFF81FFFF
(1607303791.112775) can0 0A0#3006000000009033
(1607303791.112884) can0 1A8#9905000120000400
(1607303791.112890) can0 1FC#E782000000006000
(1607303791.112897) can0 315#FF81FFFFFF81FFFF
(1607303791.114260) can0 0A8#33EE9F487F640000
(1607303791.121884) can0 2B7#220A0000000000FE
(1607303791.122011) can0 30F#CC0A720000000000
(1607303791.122137) can0 0A0#A107000000009033
(1607303791.122261) can0 3D0#020000008C000300
(1607303791.124884) can0 040#AE0B008081000042
(1607303791.125023) can0 0A8#BCEF9F487F640000
(1607303791.125028) can0 0FD#05E43F0000000000
(1607303791.125036) can0 103#C004000000000000
(1607303791.125134) can0 116#5D040000000000FF
(1607303791.126513) can0 321#7027
(1607303791.126637) can0 320#003E0000
(1607303791.126762) can0 15C#000000000000FEFF
(1607303791.128134) can0 1B00002A#2A40080100000000
(1607303791.128262) can0 3F3#007520FE65D2FF27
(1607303791.128267) can0 0A7#F2DF5F7FFDF5D71D
(1607303791.128273) can0 121#350F000020427EFE
(1607303791.128385) can0 12DD5461#00000000004013D0
(1607303791.129758) can0 3BE#832E970142000080
(1607303791.131133) can0 397#0040000000FA1F00
(1607303791.132508) can0 0A0#3D08000000009033
(1607303791.132636) can0 1A8#5C16000120000400
(1607303791.134009) can0 3C1#0008000A92020000
(1607303791.134136) can0 670#1B10100000010064
(1607303791.134142) can0 0A8#D4E09F487F640000
(1607303791.136758) can0 1B000069#6940080100000000
(1607303791.141885) can0 17F#A60D000000000000
(1607303791.142013) can0 322#72ED7FFFF30F0000
(1607303791.142135) can0 0A0#DB09000000009033
(1607303791.142260) can0 463#00E03F0000000000
(1607303791.144883) can0 0FD#9FE53F0000000000
(1607303791.145007) can0 0A8#AEE19F487F640000
(1607303791.145013) can0 103#A405000000000000
(1607303791.145018) can0 116#39050000000000FF
(1607303791.147633) can0 0A7#B3D15F7FFDF5D71D
(1607303791.149009) can0 326#FFFFFFFFFFFFFFF1
(1607303791.149137) can0 327#3D28DC3AFB6FFB20
(1607303791.149143) can0 328#FFFFFFFFFFFFFFF1
(1607303791.149148) can0 329#FFFFFFFFFFFFFFF1
(1607303791.149260) can0 3B5#840020001C002800
(1607303791.150633) can0 1B00008A#8A40080100000000
(1607303791.152009) can0 30B#1007000008000020
(1607303791.152139) can0 189#9022
(1607303791.152145) can0 313#9A0694DCFF81FFFF
(1607303791.152150) can0 314#FF81FFFFFF81FFFF
(1607303791.152262) can0 0A0#1F0A000000009033
(1607303791.152389) can0 1A8#CF170001E0FF0300
(1607303791.153758) can0 315#FF81FFFFFF81FFFF
(1607303791.153886) can0 395#100C40047D7D6B0C
(1607303791.153891) can0 640#807E94BB7E421000
(1607303791.154008) can0 0A8#42E29F487F640000
(1607303791.162887) can0 0A0#560B000000009033
(1607303791.164265) can0 497#0000000096940060
(1607303791.164391) can0 040#950C008081000044
(1607303791.164397) can0 0A8#ADE39F487F640000
(1607303791.164509) can0 0FD#8DE63F0000000000
(1607303791.165882) can0 103#0806000000000000
(1607303791.166011) can0 116#95060000000000FF
(1607303791.166017) can0 5F0#D20063280B7E0000
(1607303791.166022) can0 321#2829
(1607303791.166134) can0 320#003E0000
(1607303791.167507) can0 3D4#420F800600000000
(1607303791.167635) can0 0A7#46D35F7FFDF5D71D
(1607303791.169008) can0 0AD#ABE8BFFF8B140000
(1607303791.171632) can0 2B7#540B0000000000FE
(1607303791.171759) can0 30F#A80B720000000000
(1607303791.173134) can0 0A0#E10C000000009033
(1607303791.173271) can0 1A8#C218000120000400
(1607303791.174635) can0 0A8#01E49F487F640000
(1607303791.178509) can0 121#5704000020427EFE
(1607303791.182384) can0 17F#630E000000000000
(1607303791.182512) can0 322#E0EE7FFFF30F0000
(1607303791.182518) can0 0A0#C50D000000009033
(1607303791.182633) can0 391#00846AFFFF260000
(1607303791.184007) can0 0FD#B7E73F0000000000
(1607303791.184134) can0 0A8#6BE59F487F640000
(1607303791.185506) can0 103#6C07000000000000
(1607303791.185634) can0 116#F1070000000000FF
(1607303791.188256) can0 0A7#07D55F7FFDF5D71D
(1607303791.188384) can0 326#FFFFFFFFFFFFFFF1
(1607303791.188390) can0 327#3D28FC3AFB6FFB20
(1607303791.188396) can0 328#FFFFFFFFFFFFFFF1
(1607303791.189757) can0 329#FFFFFFFFFFFFFFF1
(1607303791.189882) can0 3F2#000F000000007D00
(1607303791.192506) can0 189#D826
(1607303791.192635) can0 313#9A8694DBFF81FFFF
(1607303791.192641) can0 314#FF81FFFFFF81FFFF
(1607303791.192646) can0 0A0#5B0E000000009033
(1607303791.192765) can0 1A8#3F090001E0FF0300
(1607303791.192771) can0 315#FF81FFFFFF81FFFF
(1607303791.192881) can0 16A955EC#0000000700000000
(1607303791.194256) can0 464#081A000000000000
(1607303791.194384) can0 0A8#5BE69F487F640000
(1607303791.198256) can0 65D#0C3E30120008348E
(1607303791.202131) can0 30B#1008000008000020
(1607303791.202259) can0 0A0#B50F000000009033
(1607303791.203631) can0 663#600020080092000C
(1607303791.203759) can0 1B000010#1050040900030000
(1607303791.203765) can0 3C1#0008000A92020000
(1607303791.203882) can0 040#0C0D008081000046
(1607303791.205256) can0 0A8#4EE79F487F640000
(1607303791.205384) can0 0FD#70E83F0000000000
(1607303791.205389) can0 103#2E08000000000000
(1607303791.205395) can0 116#B3080000000000FF
(1607303791.206757) can0 3D5#F509000414000000
(1607303791.206762) can0 3C0#500B2300
(1607303791.206768) can0 5A0#BBDC812E78000000
(1607303791.206882) can0 5E1#AD0A000000000000
(1607303791.206888) can0 320#003E0000
(1607303791.206893) can0 321#182A
(1607303791.208256) can0 0A7#1DD75F7FFDF5D71D
(1607303791.208383) can0 1AB#CF88840A00000000
(1607303791.211006) can0 17F00064#0064000000000000
(1607303791.211133) can0 17F0008A#208A000000140120
(1607303791.211139) can0 397#0040000000FA1F00
(1607303791.212506) can0 0A0#9800000000009033
(1607303791.212633) can0 1A8#480A0001A0FF0300
(1607303791.212639) can0 1A2#EE07702430024002
(1607303791.212758) can0 1FC#1687000000006000
(1607303791.214131) can0 17F0001C#001C000000000000
(1607303791.214258) can0 0A8#6CE89F487F640000
(1607303791.221879) can0 17F#4B0F000000000000
(1607303791.222006) can0 2A1#0000000000000000
(1607303791.222132) can0 0A0#9101000000009033
(1607303791.222258) can0 2B7#B70C0000000000FE
(1607303791.223630) can0 3D0#020000008C000300
(1607303791.223758) can0 30F#BB0C720000000000
(1607303791.223764) can0 322#FEEF7FFFF30F0000
(1607303791.223769) can0 5F0#D200633A0B7E0000
(1607303791.223881) can0 0FD#42E93F0000000000
(1607303791.225260) can0 0A8#1EE99F487F640000
(1607303791.225389) can0 103#4A09000000000000
(1607303791.225395) can0 116#D7090000000000FF
(1607303791.226755) can0 15C#000000000000FEFF
(1607303791.228130) can0 3F3#007620FE65D2FF27
(1607303791.228258) can0 12DD5461#00000000004013D0
(1607303791.228263) can0 0A7#80D95F7FFDF5D71D
(1607303791.228269) can0 121#0809000020427EFE
(1607303791.228381) can0 326#FFFFFFFFFFFFFFF1
(1607303791.229761) can0 327#FFFFFFFFFFFFFFF1
(1607303791.229884) can0 16A9540F#C7C5187E00006A8F
(1607303791.229889) can0 328#FFFFFFFFFFFFFFF1
(1607303791.229895) can0 5E3#008EFF45FD00FE00
(1607303791.230007) can0 329#FFFFFFFFFFFFFFF1
(1607303791.230013) can0 5E4#000800000000FFF0
(1607303791.230130) can0 3BE#8E2F970142000080
(1607303791.231505) can0 5E5#00070000A30C3AD3
(1607303791.231633) can0 583#0010050000084000
(1607303791.231638) can0 5E6#5343523335354630
(1607303791.231644) can0 6B4#015A5A5A4659324C
(1607303791.231756) can0 5E8#3030343146593034
(1607303791.231762) can0 189#D826
(1607303791.231767) can0 5F6#000A004000003000
(1607303791.231881) can0 313#9A8694DBFF81FFFF
(1607303791.233255) can0 0A0#9E02000000009033
(1607303791.233383) can0 1A8#2A1B0001A0FF0300
(1607303791.233389) can0 18A#0000211400000000
(1607303791.233394) can0 314#FF81FFFFFF81FFFF
(1607303791.233506) can0 17F0002A#202A0000001E0120
(1607303791.233512) can0 315#FF81FFFFFF81FFFF
(1607303791.233631) can0 1A555455#4445463936394858
(1607303791.235005) can0 0A8#41EA9F487F640000
(1607303791.235133) can0 1A555456#3431302430303139
(1607303791.235139) can0 1A555483#0000000000900090
(1607303791.235145) can0 1A555484#0000008F00000000
(1607303791.235257) can0 1A5554A9#3046454430303030
(1607303791.235382) can0 1A5554AA#3030303030303030
(1607303791.241755) can0 17F0004E#204E000000140120
(1607303791.243135) can0 0A0#1403000000009033
(1607303791.243266) can0 462#0000380000010000
(1607303791.243272) can0 385#2300220003202303
(1607303791.244630) can0 040#0D0E008081000048
(1607303791.244758) can0 0A8#8CEB9F487F640000
(1607303791.244764) can0 0FD#0EEA3F0000000000
(1607303791.244770) can0 103#E60A000000000000
(1607303791.244882) can0 116#7B0A0000000000FF
(1607303791.246262) can0 321#F82A
(1607303791.246382) can0 320#003E0000
(1607303791.247755) can0 0A7#E8DB5F7FFDF5D71D
(1607303791.247884) can0 3E8#0000000020200000
(1607303791.249255) can0 6B2#0D430140E1C3200F
(1607303791.249381) can0 3B5#840020001C002800
(1607303791.250755) can0 668#020000000010001C
(1607303791.252129) can0 30B#1009000008000020
(1607303791.252257) can0 0A0#FD04000000009033
(1607303791.252382) can0 1A8#D01C0001E0FF0300
(1607303791.253754) can0 481#000000010000E0FE
(1607303791.253877) can0 0A8#92EC9F487F640000
(1607303791.255254) can0 395#100D40047D7D6B0C
(1607303791.255382) can0 3C1#0008000A96020000
(1607303791.261760) can0 1B00004E#4E40040900010000
(1607303791.261892) can0 17F#DA00000000000000
(1607303791.262008) can0 0A0#ED05000000009033
(1607303791.263379) can0 322#8BE07FFFF30F0000
(1607303791.264754) can0 0FD#21EB3F0000000000
(1607303791.264879) can0 0A8#81ED9F487F640000
(1607303791.264885) can0 103#820B000000000000
(1607303791.264890) can0 116#1F0B0000000000FF
(1607303791.265005) can0 497#0000000096940060
(1607303791.267629) can0 0A7#A7DD5F7FFDF5D71D
(1607303791.269004) can0 0AD#6BE2BFFF8B140000
(1607303791.269132) can0 326#FFFFFFFFFFFFFFF1
(1607303791.269137) can0 327#FFFFFFFFFFFFFFF1
(1607303791.269143) can0 328#FFFFFFFFFFFFFFF1
(1607303791.269255) can0 329#FFFFFFFFFFFFFFF1
(1607303791.269260) can0 17F00010#2010500000000580
(1607303791.270633) can0 3F2#0000000000007D00
(1607303791.272005) can0 534#0000000000500000
(1607303791.272132) can0 189#D826
(1607303791.272138) can0 2B7#820D0000000000FE
(1607303791.272144) can0 30F#DF0D720000000000
(1607303791.272255) can0 0A0#3006000000009033
(1607303791.272381) can0 1A8#A10D0001E0FF0300
(1607303791.273754) can0 313#9A8694DBFF81FFFF
(1607303791.273882) can0 3E4#0000000000000000
(1607303791.273888) can0 314#FF81FFFFFF81FFFF
(1607303791.273893) can0 315#FF81FFFFFF81FFFF
(1607303791.274004) can0 0A8#33EE9F487F640000
(1607303791.277887) can0 121#830E000020427EFE
(1607303791.278008) can0 585#032C027C15030000
(1607303791.283128) can0 0A0#A107000000009033
(1607303791.284505) can0 5F0#D20063340B7E0000
(1607303791.284632) can0 040#940F00808100004A
(1607303791.284638) can0 0A8#BCEF9F487F640000
(1607303791.284644) can0 0FD#B8EC3F0000000000
(1607303791.284756) can0 103#910C000000000000
(1607303791.284761) can0 116#0C0C0000000000FF
(1607303791.286128) can0 321#982C
(1607303791.286255) can0 320#003E0000
(1607303791.287628) can0 0A7#F2DF5F7FFDF5D71D
(1607303791.291506) can0 397#0040000000FA1F00
(1607303791.292880) can0 0A0#3D08000000009033
(1607303791.293007) can0 1A8#230E0001E0FF0300
(1607303791.293012) can0 643#8002010000000000
(1607303791.294378) can0 463#00E03F0000000000
(1607303791.294505) can0 0A8#D4E09F487F640000
(1607303791.302127) can0 17F#2501000000000000
(1607303791.302255) can0 322#CAE17FFFF30F0000
(1607303791.302261) can0 0A0#DB09000000009033
(1607303791.302379) can0 30B#100A000008000020
(1607303791.303754) can0 663#600020080092000C
(1607303791.303883) can0 3D5#C60A000414000000
(1607303791.303889) can0 0FD#31ED3F0000000000
(1607303791.305253) can0 0A8#AEE19F487F640000
(1607303791.305381) can0 103#F50D000000000000
(1607303791.305386) can0 116#680D0000000000FF
(1607303791.305392) can0 3C0#2A0C2300
(1607303791.308002) can0 0A7#B3D15F7FFDF5D71D
(1607303791.308136) can0 326#FFFFFFFFFFFFFFF1
(1607303791.308255) can0 327#FFFFFFFFFFFFFFF1
(1607303791.308380) can0 328#FFFFFFFFFFFFFFF1
(1607303791.309752) can0 329#FFFFFFFFFFFFFFF1
(1607303791.312377) can0 189#882A
(1607303791.312505) can0 313#988693DDFF81FFFF
(1607303791.312511) can0 314#FF81FFFFFF81FFFF
(1607303791.312518) can0 0A0#1F0A000000009033
(1607303791.312629) can0 1A8#A80F000120000400
(1607303791.312635) can0 1FC#998C000000006000
(1607303791.314003) can0 315#FF81FFFFFF81FFFF
(1607303791.314130) can0 0A8#42E29F487F640000
(1607303791.321754) can0 2B7#060E0000000000FE
(1607303791.321886) can0 30F#730E720000000000
(1607303791.322004) can0 3D0#020000008C000300
(1607303791.323377) can0 0A0#560B000000009033
(1607303791.324753) can0 040#FE0000808100004C
(1607303791.324881) can0 0A8#ADE39F487F640000
(1607303791.324887) can0 0FD#CEEE3F0000000000
(1607303791.324901) can0 103#590E000000000000
(1607303791.325005) can0 116#C40E0000000000FF
(1607303791.326378) can0 321#782D
(1607303791.326504) can0 320#003E0000
(1607303791.327877) can0 15C#000000000000FEFF
(1607303791.328005) can0 555#0000240900000000
(1607303791.328011) can0 1B00002A#2A40080100000000
(1607303791.328016) can0 0A7#46D35F7FFDF5D71D
(1607303791.328128) can0 121#EA03000020427EFE
(1607303791.328133) can0 3F3#007720FE65D2FF27
(1607303791.329502) can0 17F00069#2069000000000120
(1607303791.329631) can0 12DD5461#00000000004013D0
(1607303791.329637) can0 3BE#3720970142000080
(1607303791.329642) can0 6AF#4000323232000000
(1607303791.329753) can0 1F1#000000E007800000
(1607303791.332377) can0 0A0#E10C000000009033
(1607303791.332504) can0 1A8#5100000120000400
(1607303791.332629) can0 64E#0014000000000000
(1607303791.334002) can0 0A8#01E49F487F640000
(1607303791.336626) can0 1B000069#6940080100000000
(1607303791.341753) can0 17F#B002000000000000
(1607303791.341880) can0 322#FAE27FFFF30F0000
(1607303791.342050) can0 0A0#C50D000000009033
(1607303791.343382) can0 464#081A000000000000
(1607303791.343509) can0 5F0#D20063280B7E0000
(1607303791.344876) can0 0FD#59EF3F0000000000
(1607303791.345004) can0 0A8#6BE59F487F640000
(1607303791.345010) can0 103#3D0F000000000000
(1607303791.345015) can0 116#A00F0000000000FF
(1607303791.347626) can0 0A7#07D55F7FFDF5D71D
(1607303791.349001) can0 326#FFFFFFFFFFFFFFF1
(1607303791.349129) can0 327#FFFFFFFFFFFFFFF1
(1607303791.349135) can0 328#FFFFFFFFFFFFFFF1
(1607303791.349140) can0 329#FFFFFFFFFFFFFFF1
(1607303791.349252) can0 3F2#0001000000007D00
(1607303791.349258) can0 3B5#840020001C002800
(1607303791.350626) can0 1B00008A#8A40080100000000
(1607303791.352001) can0 189#882A
(1607303791.352129) can0 313#988693DDFF81FFFF
(1607303791.352134) can0 314#FF81FFFFFF81FFFF
(1607303791.352253) can0 0A0#5B0E000000009033
(1607303791.352379) can0 1A8#D701000120000400
(1607303791.353750) can0 30B#100B000008000020
(1607303791.353879) can0 315#FF81FFFFFF81FFFF
(1607303791.353884) can0 395#100E40047D7D6B0C
(1607303791.353890) can0 58F#0000FEBBFE0E0000
(1607303791.354002) can0 0A8#5BE69F487F640000
(1607303791.357875) can0 65D#0F3030120008348E
(1607303791.359250) can0 1A555496#0000000000000047
(1607303791.363125) can0 0A0#B50F000000009033
(1607303791.364501) can0 497#0000000096940060
(1607303791.364628) can0 040#670100808100004E
(1607303791.364634) can0 0A8#4EE79F487F640000
(1607303791.364640) can0 0FD#23E03F0000000000
(1607303791.364751) can0 103#7F00000000000000
(1607303791.366125) can0 116#E2000000000000FF
(1607303791.366253) can0 321#582F
(1607303791.366258) can0 320#003E0000
(1607303791.367625) can0 3D4#B000800600000000
(1607303791.367752) can0 0A7#1DD75F7FFDF5D71D
(1607303791.367877) can0 0AD#26ECBFFF8B140000
(1607303791.371749) can0 397#0040000000FA1F00
(1607303791.371878) can0 2B7#AF0F0000000000FE
(1607303791.371883) can0 30F#170F720000000000
(1607303791.372001) can0 0A0#9800000000009033
(1607303791.373375) can0 1A8#0002000120000400
(1607303791.373502) can0 3C1#0008000A9A020000
(1607303791.374875) can0 0A8#6CE89F487F640000
(1607303791.378755) can0 121#F708000020427EFE
(1607303791.382625) can0 17F#1D03000000000000
(1607303791.382753) can0 322#BFE37FFFF30F0000
(1607303791.382758) can0 0A0#9101000000009033
(1607303791.382764) can0 108#370E8471757EFE00
(1607303791.382876) can0 391#00846AFFFF260000
(1607303791.384249) can0 0FD#29E13F0000000000
(1607303791.384384) can0 0A8#1EE99F487F640000
(1607303791.384390) can0 103#1B01000000000000
(1607303791.385756) can0 116#86010000000000FF
(1607303791.388374) can0 0A7#80D95F7FFDF5D71D
(1607303791.388503) can0 326#FFFFFFFFFFFFFFF1
(1607303791.388508) can0 327#FFFFFFFFFFFFFFF1
(1607303791.388514) can0 328#FFFFFFFFFFFFFFF1
(1607303791.388626) can0 329#FFFFFFFFFFFFFFF1
(1607303791.392499) can0 189#882A
(1607303791.392627) can0 313#988693DDFF81FFFF
(1607303791.392640) can0 314#FF81FFFFFF81FFFF
(1607303791.392645) can0 0A0#9E02000000009033
(1607303791.392750) can0 1A8#4713000120000400
(1607303791.392756) can0 315#FF81FFFFFF81FFFF
(1607303791.392873) can0 462#0000380000010000
(1607303791.394249) can0 0A8#41EA9F487F640000
(1607303791.403124) can0 0A0#1403000000009033
(1607303791.403257) can0 30B#100C000008000020
(1607303791.403263) can0 663#600020080092000C
(1607303791.403375) can0 1B000010#1050040900030000
(1607303791.404749) can0 3C1#0008000A9A020000
(1607303791.404882) can0 040#4302008081000050
(1607303791.404888) can0 0A8#8CEB9F487F640000
(1607303791.404893) can0 0FD#E6E23F0000000000
(1607303791.405001) can0 103#B702000000000000
(1607303791.405007) can0 116#2A020000000000FF
(1607303791.405124) can0 3D5#290B000414000000
(1607303791.405251) can0 3C0#9F0D2300
(1607303791.406623) can0 5A0#BBDF812E78000000
(1607303791.406752) can0 5F0#D200633A0B7E0000
(1607303791.406757) can0 320#003E0000
(1607303791.406762) can0 321#2030
(1607303791.406874) can0 5E1#AD0A000000000000
(1607303791.408249) can0 0A7#E8DB5F7FFDF5D71D
(1607303791.408376) can0 1AB#C482840A00000000
(1607303791.412248) can0 0A0#FD04000000009033
(1607303791.412376) can0 1A8#C404000120000400
(1607303791.412502) can0 1A2#CD01702430024002
(1607303791.413874) can0 1FC#7681000000006000
(1607303791.413999) can0 0A8#92EC9F487F640000
(1607303791.421623) can0 17F#AC04000000000000
(1607303791.421750) can0 2A1#0000000000000000
(1607303791.423123) can0 0A0#ED05000000009033
(1607303791.423251) can0 2B7#8D000000000000FE
(1607303791.423257) can0 3D0#020000008C000300
(1607303791.423262) can0 30F#5500720000000000
(1607303791.423374) can0 322#50E47FFFF30F0000
(1607303791.424748) can0 0FD#93E33F0000000000
(1607303791.424872) can0 0A8#81ED9F487F640000
(1607303791.424878) can0 103#D303000000000000
(1607303791.424884) can0 116#4E030000000000FF
(1607303791.427499) can0 15C#000000000000FEFF
(1607303791.427625) can0 3F3#007820FE65D2FF27
(1607303791.427750) can0 12DD5461#00000000004013D0
(1607303791.427875) can0 0A7#A7DD5F7FFDF5D71D
(1607303791.429247) can0 121#100D000020427EFE
(1607303791.429376) can0 326#FFFFFFFFFFFFFFF1
(1607303791.429382) can0 327#FFFFFFFFFFFFFFF1
(1607303791.429387) can0 328#FFFFFFFFFFFFFFF1
(1607303791.429499) can0 329#FFFFFFFFFFFFFFF1
(1607303791.429505) can0 3F2#0002000000007D00
(1607303791.429623) can0 3BE#4321970142000080
(1607303791.430998) can0 583#0010050000084000
(1607303791.431125) can0 6B4#0000000000574155
(1607303791.432497) can0 189#B02E
(1607303791.432626) can0 313#FF81FFFFFF81FFFF
(1607303791.432633) can0 314#FF81FFFFFF81FFFF
(1607303791.432638) can0 0A0#3006000000009033
(1607303791.432750) can0 1A8#9905000120000400
(1607303791.432755) can0 18A#0000211400000000
(1607303791.432873) can0 315#FF81FFFFFF81FFFF
(1607303791.434248) can0 0A8#33EE9F487F640000
(1607303791.443133) can0 0A0#A107000000009033
(1607303791.443256) can0 463#00E03F0000000000
(1607303791.444623) can0 040#DA03008081000052
(1607303791.444751) can0 0A8#BCEF9F487F640000
(1607303791.444757) can0 0FD#05E43F0000000000
(1607303791.444762) can0 103#C004000000000000
(1607303791.444875) can0 116#5D040000000000FF
(1607303791.446248) can0 321#D831
(1607303791.446376) can0 320#003E0000
(1607303791.447747) can0 0A7#F2DF5F7FFDF5D71D
(1607303791.449122) can0 3B5#840020001C002800
(1607303791.451749) can0 668#020000000010001C
(1607303791.451876) can0 397#0040000000FA1F00
(1607303791.452000) can0 0A0#3D08000000009033
(1607303791.453372) can0 1A8#FE06000120000400
(1607303791.453500) can0 30B#100D000008000020
(1607303791.453625) can0 395#100F40047D7D6B0C
(1607303791.454997) can0 0A8#D4E09F487F640000
(1607303791.462629) can0 1B00004E#4E40040900010000
(1607303791.462752) can0 17F#F905000000000000
(1607303791.462758) can0 322#47E57FFFF30F0000
(1607303791.462764) can0 0A0#DB09000000009033
(1607303791.464122) can0 497#0000000096940060
(1607303791.464249) can0 0A8#AEE19F487F640000
(1607303791.464255) can0 0FD#9FE53F0000000000
(1607303791.465622) can0 103#A405000000000000
(1607303791.465750) can0 116#39050000000000FF
(1607303791.465756) can0 5F0#D20063460B7E0000
(1607303791.468372) can0 0A7#B3D15F7FFDF5D71D
(1607303791.468500) can0 0AD#63E6BFFF8B140000
(1607303791.468505) can0 326#FFFFFFFFFFFFFFF1
(1607303791.468511) can0 327#3D28FC3AFB6FFB20
(1607303791.468623) can0 328#FFFFFFFFFFFFFFF1
(1607303791.469997) can0 329#FFFFFFFFFFFFFFF1
(1607303791.471372) can0 534#0000000000500000
(1607303791.471499) can0 189#B02E
(1607303791.471624) can0 2B7#DC010000000000FE
(1607303791.472997) can0 30F#3101720000000000
(1607303791.473125) can0 0A0#1F0A000000009033
(1607303791.473131) can0 1A8#3717000120000400
(1607303791.473136) can0 313#FF81FFFFFF81FFFF
(1607303791.473247) can0 314#FF81FFFFFF81FFFF
(1607303791.473253) can0 315#FF81FFFFFF81FFFF
(1607303791.474621) can0 640#807E94BB7E421000
(1607303791.474749) can0 0A8#42E29F487F640000
(1607303791.478621) can0 121#1802000020427EFE
(1607303791.482496) can0 0A0#560B000000009033
(1607303791.483871) can0 040#E104008081000054
(1607303791.485246) can0 0A8#ADE39F487F640000
(1607303791.485374) can0 0FD#8DE63F0000000000
(1607303791.485380) can0 103#0806000000000000
(1607303791.485385) can0 116#95060000000000FF
(1607303791.486746) can0 321#B832
(1607303791.486873) can0 320#003E0000
(1607303791.488247) can0 0A7#46D35F7FFDF5D71D
(1607303791.492123) can0 0A0#E10C000000009033
(1607303791.492262) can0 1A8#98080001E0FF0300
(1607303791.493621) can0 464#081A000000000000
(1607303791.494996) can0 0A8#01E49F487F640000
(1607303791.495123) can0 3C1#0008000A9E020000
(1607303791.501498) can0 17F#0606000000000000
(1607303791.502871) can0 322#E9E67FFFF30F0000
(1607303791.502999) can0 0A0#C50D000000009033
(1607303791.503004) can0 30B#100E000008000020
(1607303791.503010) can0 663#600020080092000C
(1607303791.504371) can0 3D5#560C000414000000
(1607303791.504498) can0 54B#0000000000000000
(1607303791.504504) can0 0A8#6BE59F487F640000
(1607303791.504509) can0 0FD#B7E73F0000000000
(1607303791.504621) can0 103#6C07000000000000
(1607303791.504748) can0 116#F1070000000000FF
(1607303791.504870) can0 3C0#6F0E2300
(1607303791.506245) can0 5F4#0000630080002400
(1607303791.506373) can0 6A6#1000020000000000
(1607303791.507747) can0 0A7#07D55F7FFDF5D71D
(1607303791.507873) can0 326#FFFFFFFFFFFFFFF1
(1607303791.509248) can0 327#3D28FC3AFB6FFB20
(1607303791.509376) can0 328#FFFFFFFFFFFFFFF1
(1607303791.509382) can0 329#FFFFFFFFFFFFFFF1
(1607303791.509387) can0 3F2#0003000000007D00
(1607303791.511999) can0 189#B02E
(1607303791.512124) can0 313#FF81FFFFFF81FFFF
(1607303791.512130) can0 314#FF81FFFFFF81FFFF
(1607303791.512250) can0 0A0#5B0E000000009033
(1607303791.512373) can0 1A8#3F090001E0FF0300
(1607303791.513745) can0 1FC#AA86000000006000
(1607303791.513872) can0 315#FF81FFFFFF81FFFF
(1607303791.513999) can0 0A8#5BE69F487F640000
(1607303791.517872) can0 65D#0A3230120008348E
(1607303791.521764) can0 2B7#04020000000000FE
(1607303791.521872) can0 30F#9D02720000000000
(1607303791.521996) can0 0A0#B50F000000009033
(1607303791.523370) can0 3D0#020000008C000300
(1607303791.523498) can0 5F0#D200634C0B7E0000
(1607303791.524878) can0 040#7805008081000056
(1607303791.524998) can0 0A8#4EE79F487F640000
(1607303791.525004) can0 0FD#70E83F0000000000
(1607303791.525010) can0 103#2E08000000000000
(1607303791.525121) can0 116#B3080000000000FF
(1607303791.526495) can0 321#6834
(1607303791.526622) can0 320#003E0000
(1607303791.526629) can0 15C#000000000000FEFF
(1607303791.527995) can0 1B00002A#2A40080100000000
(1607303791.528123) can0 3F3#007900FE65D2FF26
(1607303791.528129) can0 0A7#1DD75F7FFDF5D71D
(1607303791.528134) can0 121#3407000020427EFE
(1607303791.528246) can0 12DD5461#00000000004013D0
(1607303791.529620) can0 17330A10#32910609
(1607303791.529747) can0 3BE#2C22970142000080
(1607303791.531120) can0 397#0040000000FA1F00
(1607303791.532494) can0 0A0#9800000000009033
(1607303791.532622) can0 1A8#5D0A0001E0FF0300
(1607303791.533994) can0 0A8#6CE89F487F640000
(1607303791.536620) can0 1B000069#6940080100000000
(1607303791.541744) can0 17F#0D07000000000000
(1607303791.541869) can0 322#55E77FFFF30F0000
(1607303791.541995) can0 0A0#9101000000009033
(1607303791.543369) can0 462#0000380000010000
(1607303791.544744) can0 0FD#42E93F0000000000
(1607303791.544869) can0 0A8#1EE99F487F640000
(1607303791.544874) can0 103#4A09000000000000
(1607303791.544880) can0 116#D7090000000000FF
(1607303791.548750) can0 0A7#80D95F7FFDF5D71D
(1607303791.548878) can0 326#FFFFFFFFFFFFFFF1
(1607303791.548884) can0 327#3D28FC3AF96FFB20
(1607303791.548889) can0 328#FFFFFFFFFFFFFFF1
(1607303791.548999) can0 329#FFFFFFFFFFFFFFF1
(1607303791.549005) can0 3B5#840020001C002800
(1607303791.551622) can0 1B00008A#8A40080100000000
(1607303791.551748) can0 189#6832
(1607303791.551753) can0 313#FF81FFFFFF81FFFF
(1607303791.551871) can0 314#FF81FFFFFF81FFFF
(1607303791.553244) can0 0A0#9E02000000009033
(1607303791.553372) can0 1A8#9D0B0001E0FF0300
(1607303791.553377) can0 30B#100F000008000020
(1607303791.553384) can0 315#FF81FFFFFF81FFFF
(1607303791.553494) can0 395#100040047D7D6B0C
(1607303791.554869) can0 0A8#41EA9F487F640000
(1607303791.562493) can0 0A0#1403000000009033
(1607303791.563868) can0 040#7906008081000058
(1607303791.565243) can0 0A8#8CEB9F487F640000
(1607303791.565370) can0 0FD#0EEA3F0000000000
(1607303791.565376) can0 103#E60A000000000000
(1607303791.565381) can0 116#7B0A0000000000FF
(1607303791.565493) can0 497#0000000096940060
(1607303791.566868) can0 321#4835
(1607303791.566995) can0 320#003E0000
(1607303791.567120) can0 3D4#E301800600000000
(1607303791.568493) can0 0A7#E8DB5F7FFDF5D71D
(1607303791.568620) can0 0AD#41E0BFFF8B140000
(1607303791.572493) can0 2B7#5D030000000000FE
(1607303791.572621) can0 30F#F903720000000000
(1607303791.572627) can0 0A0#FD04000000009033
(1607303791.572632) can0 1A8#720C0001E0FF0300
(1607303791.573994) can0 0A8#92EC9F487F640000
(1607303791.577867) can0 121#030C000020427EFE
(1607303791.581743) can0 17F#C608000000000000
(1607303791.581871) can0 322#98E87FFFF30F0000
(1607303791.581995) can0 0A0#ED05000000009033
(1607303791.583367) can0 391#00846AFFFF260000
(1607303791.584742) can0 0FD#21EB3F0000000000
(1607303791.584869) can0 0A8#81ED9F487F640000
(1607303791.584874) can0 103#820B000000000000
(1607303791.584880) can0 116#1F0B0000000000FF
(1607303791.588742) can0 0A7#A7DD5F7FFDF5D71D
(1607303791.588870) can0 326#FFFFFFFFFFFFFFF1
(1607303791.588876) can0 327#3D28FC3AF96FFB20
(1607303791.588881) can0 328#FFFFFFFFFFFFFFF1
(1607303791.588993) can0 329#FFFFFFFFFFFFFFF1
(1607303791.588999) can0 3F2#0004000000007D00
(1607303791.591617) can0 189#6832
(1607303791.591745) can0 313#FF81FFFFFF81FFFF
(1607303791.591869) can0 314#FF81FFFFFF81FFFF
(1607303791.593242) can0 0A0#3006000000009033
(1607303791.593370) can0 1A8#A10D0001E0FF0300
(1607303791.593376) can0 315#FF81FFFFFF81FFFF
(1607303791.593381) can0 463#00E03F0000000000
(1607303791.594754) can0 0A8#33EE9F487F640000
(1607303791.602372) can0 0A0#A107000000009033
(1607303791.602496) can0 30B#1000000008000020
(1607303791.602618) can0 663#600020080092000C
(1607303791.603992) can0 1B000010#1050040900030000
(1607303791.604119) can0 3C1#0008000A9E020000
(1607303791.604125) can0 040#E00700808100005A
(1607303791.604243) can0 0A8#BCEF9F487F640000
(1607303791.604369) can0 0FD#B8EC3F0000000000
(1607303791.605747) can0 103#910C000000000000
(1607303791.605866) can0 116#0C0C0000000000FF
(1607303791.605872) can0 3D5#720D000414000000
(1607303791.605877) can0 3C0#DA0F2300
(1607303791.605993) can0 5A0#BEE2812E78000000
(1607303791.605998) can0 5F0#D200634C0B7E0000
(1607303791.606004) can0 320#003E0000
(1607303791.606124) can0 321#4836
(1607303791.607491) can0 5E1#AD0A000000000000
(1607303791.607619) can0 0A7#F2DF5F7FFDF5D71D
(1607303791.608994) can0 1AB#0A8C840A00000000
(1607303791.611616) can0 397#0040000000FA1F00
(1607303791.612991) can0 0A0#3D08000000009033
(1607303791.613119) can0 1A8#811E0001E0FF0300
(1607303791.613125) can0 6B7#4301E008000E009B
(1607303791.613130) can0 1A2#F70B702430024002
(1607303791.613242) can0 1FC#5C8B000000006000
(1607303791.614616) can0 0A8#D4E09F487F640000
(1607303791.622246) can0 17F#CB09000000000000
(1607303791.622377) can0 2A1#0000000000000000
(1607303791.622383) can0 0A0#DB09000000009033
(1607303791.622389) can0 2B7#ED040000000000FE
(1607303791.622492) can0 3D0#020000008C000300
(1607303791.623866) can0 30F#EA04720000000000
(1607303791.623994) can0 322#ADE97FFFF30F0000
(1607303791.623999) can0 0FD#31ED3F0000000000
(1607303791.624118) can0 0A8#AEE19F487F640000
(1607303791.625491) can0 103#F50D000000000000
(1607303791.625618) can0 116#680D0000000000FF
(1607303791.625624) can0 6AE#0000100000000000
(1607303791.626992) can0 15C#000000000000FEFF
(1607303791.628366) can0 3F3#007A00FE65D2FF26
(1607303791.628494) can0 12DD5461#00000000004013D0
(1607303791.628500) can0 0A7#B3D15F7FFDF5D71D
(1607303791.628505) can0 121#9701000020427EFE
(1607303791.628617) can0 326#FFFFFFFFFFFFFFF1
(1607303791.628623) can0 327#3D28FC3AFB6FFB20
(1607303791.629994) can0 328#FFFFFFFFFFFFFFF1
(1607303791.630124) can0 329#FFFFFFFFFFFFFFF1
(1607303791.630130) can0 3BE#DF23970142000080
(1607303791.630135) can0 583#0010050000084000
(1607303791.631492) can0 6B4#0232313038383636
(1607303791.631619) can0 189#6832
(1607303791.631743) can0 313#FF81FFFFFF81FFFF
(1607303791.631868) can0 314#FF81FFFFFF81FFFF
(1607303791.633241) can0 0A0#1F0A000000009033
(1607303791.633369) can0 1A8#A80F000120000400
(1607303791.633374) can0 18A#0000211400000000
(1607303791.633380) can0 315#FF81FFFFFF81FFFF
(1607303791.633492) can0 3C1#0008000AA2020000
(1607303791.634865) can0 670#1B10100000010064
(1607303791.634993) can0 0A8#42E29F487F640000
(1607303791.642615) can0 0A0#560B000000009033
(1607303791.642743) can0 464#081A000000000000
(1607303791.644115) can0 040#8A0800808100005C
(1607303791.644243) can0 0A8#ADE39F487F640000
(1607303791.644367) can0 0FD#CEEE3F0000000000
(1607303791.644492) can0 103#590E000000000000
(1607303791.645865) can0 116#C40E0000000000FF
(1607303791.645992) can0 321#0038
(1607303791.646117) can0 320#003E0000
(1607303791.648740) can0 0A7#46D35F7FFDF5D71D
(1607303791.650116) can0 3B5#840020001C002800
(1607303791.650243) can0 668#020000000010001C
(1607303791.652865) can0 0A0#E10C000000009033
(1607303791.652993) can0 1A8#5100000120000400
(1607303791.652998) can0 30B#1001000008000020
(1607303791.654365) can0 395#100140047D7D6B0C
(1607303791.654492) can0 0A8#01E49F487F640000
(1607303791.662115) can0 1B00004E#4E40040900010000
(1607303791.662243) can0 17F#F70A000000000000
(1607303791.662248) can0 17330B10#32D608
(1607303791.662254) can0 0A0#C50D000000009033
(1607303791.662366) can0 322#F3EA7FFFF30F0000
(1607303791.663739) can0 497#0000000096940060
(1607303791.665114) can0 0A8#6BE59F487F640000
(1607303791.665243) can0 0FD#59EF3F0000000000
(1607303791.665248) can0 103#3D0F000000000000
(1607303791.665254) can0 116#A00F0000000000FF
(1607303791.667864) can0 0A7#07D55F7FFDF5D71D
(1607303791.667991) can0 0AD#FEEABFFF8B140000
(1607303791.669365) can0 326#FFFFFFFFFFFFFFF1
(1607303791.669493) can0 327#3D28DC3AF96FFB20
(1607303791.669499) can0 328#FFFFFFFFFFFFFFF1
(1607303791.669505) can0 329#FFFFFFFFFFFFFFF1
(1607303791.669615) can0 3F2#0005000000007D00
(1607303791.670989) can0 534#0000000000500000
(1607303791.672364) can0 189#A836
(1607303791.672497) can0 2B7#15050000000000FE
(1607303791.672503) can0 30F#8E05720000000000
(1607303791.672508) can0 0A0#5B0E000000009033
(1607303791.672616) can0 1A8#2F010001E0FF0300
(1607303791.672629) can0 313#FF81FFFFFF81FFFF
(1607303791.673989) can0 314#FF81FFFFFF81FFFF
(1607303791.674117) can0 315#FF81FFFFFF81FFFF
(1607303791.674123) can0 58F#0000FEBBFE0E0000
(1607303791.674129) can0 0A8#5BE69F487F640000
(1607303791.677989) can0 121#6706000020427EFE
(1607303791.678116) can0 65D#F93430120008348E
(1607303791.679489) can0 1A555496#0000000000000047
(1607303791.682114) can0 0A0#B50F000000009033
(1607303791.684739) can0 040#130900808100005E
(1607303791.684867) can0 0A8#4EE79F487F640000
(1607303791.684872) can0 0FD#23E03F0000000000
(1607303791.684878) can0 103#7F00000000000000
(1607303791.684990) can0 116#E2000000000000FF
(1607303791.686363) can0 321#E038
(1607303791.686491) can0 320#003E0000
(1607303791.687865) can0 0A7#1DD75F7FFDF5D71D
(1607303791.691740) can0 397#0040000000FA1F00
(1607303791.693116) can0 0A0#9800000000009033
(1607303791.693263) can0 1A8#F8020001E0FF0300
(1607303791.693268) can0 462#0000380000010000
(1607303791.693274) can0 16A955EC#0000000700000000
(1607303791.694619) can0 0A8#6CE89F487F640000
(1607303791.702242) can0 17F#180B000000000000
(1607303791.702376) can0 322#24EB7FFFF30F0000
(1607303791.702381) can0 0A0#9101000000009033
(1607303791.702387) can0 30B#1002000008000020
(1607303791.702490) can0 17331A10#369300
(1607303791.703863) can0 663#600020080092000C
(1607303791.703991) can0 3D5#4C0E000414000000
(1607303791.703996) can0 0FD#29E13F0000000000
(1607303791.704114) can0 0A8#1EE99F487F640000
(1607303791.705488) can0 103#1B01000000000000
(1607303791.705616) can0 116#86010000000000FF
(1607303791.705621) can0 3C0#9B002300
(1607303791.708238) can0 0A7#80D95F7FFDF5D71D
(1607303791.708366) can0 326#FFFFFFFFFFFFFFF1
(1607303791.708372) can0 327#3D28FC3AF96FFB20
(1607303791.708377) can0 328#FFFFFFFFFFFFFFF1
(1607303791.709740) can0 329#FFFFFFFFFFFFFFF1
(1607303791.711113) can0 17F00064#0064000000000000
(1607303791.711241) can0 17F0008A#208A000000140120
(1607303791.711247) can0 67C#0000130300000000
(1607303791.711365) can0 189#A836
(1607303791.712738) can0 313#FF81FFFFFF81FFFF
(1607303791.712863) can0 314#FF81FFFFFF81FFFF
(1607303791.712868) can0 0A0#9E02000000009033
(1607303791.712874) can0 1A8#1D030001E0FF0300
(1607303791.712988) can0 1FC#9380000000006000
(1607303791.712994) can0 315#FF81FFFFFF81FFFF
(1607303791.713113) can0 5F8#0000130000000000
(1607303791.714488) can0 17F0001C#001C000000000000
(1607303791.714615) can0 1A555548#0000000000000000
(1607303791.714621) can0 0A8#41EA9F487F640000
(1607303791.722240) can0 2B7#C3060000000000FE
(1607303791.722371) can0 30F#2206720000000000
(1607303791.722376) can0 0A0#1403000000009033
(1607303791.723738) can0 3D0#020000008C000300
(1607303791.723865) can0 040#7D0A008081000060
(1607303791.725237) can0 0A8#8CEB9F487F640000
(1607303791.725366) can0 0FD#E6E23F0000000000
(1607303791.725371) can0 103#B702000000000000
(1607303791.725377) can0 116#2A020000000000FF
(1607303791.726744) can0 321#783A
(1607303791.726865) can0 320#003E0000
(1607303791.726871) can0 15C#000000000000FEFF
(1607303791.728238) can0 1B00002A#2A40080100000000
(1607303791.728365) can0 3F3#007B00FE65D2FF26
(1607303791.728371) can0 0A7#E8DB5F7FFDF5D71D
(1607303791.728376) can0 121#C60B000020427EFE
(1607303791.728489) can0 12DD5461#00000000004013D0
(1607303791.728616) can0 16A9540F#C7C5187E00006A8F
(1607303791.729987) can0 5E3#008FFF45FD00FE00
(1607303791.730115) can0 3BE#2824970142000080
(1607303791.730121) can0 5E4#000900000000FFF0
(1607303791.730127) can0 5F6#000B004000003000
(1607303791.730239) can0 17F0002A#202A0000001E0120
(1607303791.730244) can0 1A555455#4445463936394858
(1607303791.731612) can0 1A555456#3431302430303139
(1607303791.731740) can0 1A555483#0000000000900090
(1607303791.731746) can0 1A555484#0000008F00000000
(1607303791.731752) can0 1A5554A9#3046454430303030
(1607303791.731863) can0 1A5554AA#3030303030303030
(1607303791.731989) can0 0A0#FD04000000009033
(1607303791.733362) can0 1A8#C404000120000400
(1607303791.734737) can0 0A8#92EC9F487F640000
(1607303791.736112) can0 3C1#0008000AA6020000
(1607303791.736239) can0 1B000069#6940080100000000
(1607303791.742611) can0 17F#B40C000000000000
(1607303791.742740) can0 322#4BEC7FFFF30F0000
(1607303791.742746) can0 17F0004E#204E000000140120
(1607303791.742751) can0 0A0#ED05000000009033
(1607303791.742863) can0 463#00E03F0000000000
(1607303791.744237) can0 0FD#93E33F0000000000
(1607303791.744364) can0 0A8#81ED9F487F640000
(1607303791.744370) can0 103#D303000000000000
(1607303791.745738) can0 116#4E030000000000FF
(1607303791.748361) can0 0A7#A7DD5F7FFDF5D71D
(1607303791.748489) can0 326#FFFFFFFFFFFFFFF1
(1607303791.748495) can0 327#3D28FC3AFB6FFB20
(1607303791.748501) can0 328#FFFFFFFFFFFFFFF1
(1607303791.748612) can0 329#FFFFFFFFFFFFFFF1
(1607303791.749986) can0 3F2#0006000000007D00
(1607303791.750114) can0 3B5#840020001C002800
(1607303791.751486) can0 1B00008A#8A40080100000000
(1607303791.751613) can0 189#A836
(1607303791.751738) can0 313#FF81FFFFFF81FFFF
(1607303791.751865) can0 314#FF81FFFFFF81FFFF
(1607303791.753236) can0 0A0#3006000000009033
(1607303791.753364) can0 1A8#9905000120000400
(1607303791.753370) can0 30B#1003000008000020
(1607303791.753376) can0 315#FF81FFFFFF81FFFF
(1607303791.753487) can0 481#000000010000E0FE
(1607303791.753493) can0 395#100240047D7D6B0C
(1607303791.754861) can0 0A8#33EE9F487F640000
(1607303791.762486) can0 0A0#A107000000009033
(1607303791.763861) can0 497#0000000096940060
(1607303791.763988) can0 040#E40B008081000062
(1607303791.765361) can0 0A8#BCEF9F487F640000
(1607303791.765489) can0 0FD#05E43F0000000000
(1607303791.765494) can0 103#C004000000000000
(1607303791.765500) can0 116#5D040000000000FF
(1607303791.766861) can0 321#603B
(1607303791.766992) can0 320#003E0000
(1607303791.767114) can0 3D4#A802800600000000
(1607303791.768486) can0 0A7#F2DF5F7FFDF5D71D
(1607303791.768612) can0 0AD#48E4BFFF8B140000
(1607303791.768618) can0 17F00010#2010500000000580
(1607303791.771236) can0 397#0040000000FA1F00
(1607303791.772611) can0 2B7#91070000000000FE
(1607303791.772739) can0 30F#4607720000000000
(1607303791.772745) can0 0A0#3D08000000009033
(1607303791.772750) can0 1A8#FE06000120000400
(1607303791.774111) can0 0A8#D4E09F487F640000
(1607303791.777985) can0 121#FB00000020427EFE
(1607303791.781861) can0 17F#A60D000000000000
(1607303791.781988) can0 322#72ED7FFFF30F0000
(1607303791.782113) can0 0A0#DB09000000009033
(1607303791.783490) can0 391#00846AFFFF260000
(1607303791.784861) can0 0FD#9FE53F0000000000
(1607303791.784985) can0 0A8#AEE19F487F640000
(1607303791.784991) can0 103#A405000000000000
(1607303791.784996) can0 116#39050000000000FF
(1607303791.787610) can0 0A7#B3D15F7FFDF5D71D
(1607303791.788985) can0 326#FFFFFFFFFFFFFFF1
(1607303791.789113) can0 327#3D28DC3AF96FFB20
(1607303791.789119) can0 328#FFFFFFFFFFFFFFF1
(1607303791.789124) can0 329#FFFFFFFFFFFFFFF1
(1607303791.791742) can0 189#A836
(1607303791.791870) can0 313#FF81FFFFFF81FFFF
(1607303791.791988) can0 314#FF81FFFFFF81FFFF
(1607303791.792116) can0 0A0#1F0A000000009033
(1607303791.793486) can0 1A8#6D070001E0FF0300
(1607303791.793613) can0 315#FF81FFFFFF81FFFF
(1607303791.793619) can0 464#081A000000000000
(1607303791.794985) can0 640#807E94BB7E421000
(1607303791.795112) can0 0A8#42E29F487F640000
(1607303791.802738) can0 0A0#560B000000009033
(1607303791.802865) can0 30B#1004000008000020
(1607303791.802870) can0 663#600020080092000C
(1607303791.804241) can0 1B000010#1050040900030000
(1607303791.804365) can0 3C1#0008000AA6020000
(1607303791.804371) can0 040#DF0C008081000064
(1607303791.804377) can0 0A8#ADE39F487F640000
(1607303791.804486) can0 0FD#8DE63F0000000000
(1607303791.804612) can0 103#0806000000000000
(1607303791.805985) can0 116#95060000000000FF
(1607303791.806113) can0 3D5#AB0F000414000000
(1607303791.806118) can0 3C0#2E012300
(1607303791.806124) can0 5A0#BEE2812E78000000
(1607303791.807486) can0 5F0#D200634C0B7E0000
(1607303791.807492) can0 320#003E0000
(1607303791.807497) can0 321#103D
(1607303791.807611) can0 5E1#AD0A000000000000
(1607303791.807737) can0 0A7#46D35F7FFDF5D71D
(1607303791.807862) can0 1AB#0786840A00000000
(1607303791.812987) can0 0A0#E10C000000009033
(1607303791.813115) can0 1A8#98080001E0FF0300
(1607303791.813120) can0 1A2#3105702430024002
(1607303791.813127) can0 1FC#2785000000006000
(1607303791.814485) can0 0A8#01E49F487F640000
(1607303791.822109) can0 17F#630E000000000000
(1607303791.822237) can0 2A1#0000000000000000
(1607303791.822243) can0 2B7#43080000000000FE
(1607303791.822361) can0 0A0#C50D000000009033
(1607303791.822486) can0 30F#0408720000000000
(1607303791.823859) can0 322#E0EE7FFFF30F0000
(1607303791.823987) can0 3D0#020000008C000300
(1607303791.823992) can0 0FD#B7E73F0000000000
(1607303791.824110) can0 0A8#6BE59F487F640000
(1607303791.825484) can0 103#6C07000000000000
(1607303791.825611) can0 116#F1070000000000FF
(1607303791.826985) can0 15C#000000000000FEFF
(1607303791.827112) can0 17F00069#2069000000000120
(1607303791.828484) can0 3F3#007C00FE65D2FF26
(1607303791.828613) can0 12DD5461#00000000004013D0
(1607303791.828618) can0 0A7#07D55F7FFDF5D71D
(1607303791.828624) can0 121#6005000020427EFE
(1607303791.828736) can0 326#FFFFFFFFFFFFFFF1
(1607303791.828742) can0 327#3D28FC3AFB6FFB20
(1607303791.828860) can0 328#FFFFFFFFFFFFFFF1
(1607303791.830234) can0 329#FFFFFFFFFFFFFFF1
(1607303791.830362) can0 3F2#0007000000007D00
(1607303791.830368) can0 1F1#000000E007800000
(1607303791.830373) can0 3BE#5725970142000080
(1607303791.830486) can0 366#00000020200000F0
(1607303791.831858) can0 583#0010050000084000
(1607303791.831987) can0 16A9540A#0000000000000000
(1607303791.831993) can0 189#B83A
(1607303791.831998) can0 313#FF81FFFFFF81FFFF
(1607303791.832110) can0 0A0#5B0E000000009033
(1607303791.832236) can0 1A8#C709000120000400
(1607303791.833609) can0 314#FF81FFFFFF81FFFF
(1607303791.833737) can0 18A#0000211400000000
(1607303791.833742) can0 315#FF81FFFFFF81FFFF
(1607303791.833748) can0 6B4#0000000000574155
(1607303791.833860) can0 0A8#5BE69F487F640000
(1607303791.837734) can0 65D#F83630120008348E
(1607303791.842859) can0 0A0#B50F000000009033
(1607303791.842989) can0 462#0000380000010000
(1607303791.844361) can0 040#460D008081000066
(1607303791.844487) can0 0A8#4EE79F487F640000
(1607303791.844492) can0 0FD#70E83F0000000000
(1607303791.844610) can0 103#2E08000000000000
(1607303791.844735) can0 116#B3080000000000FF
(1607303791.846108) can0 321#083E
(1607303791.846235) can0 320#003E0000
(1607303791.847609) can0 0A7#1DD75F7FFDF5D71D
(1607303791.848987) can0 3B5#840020001C002800
(1607303791.850359) can0 668#020000000010001C
(1607303791.851732) can0 397#0040000000FA1F00
(1607303791.853109) can0 0A0#9800000000009033
(1607303791.853238) can0 1A8#071A000120000400
(1607303791.853244) can0 30B#1005000008000020
(1607303791.854608) can0 395#100340047D7D6B0C
(1607303791.854736) can0 0A8#6CE89F487F640000
(1607303791.854741) can0 3C1#0008000AAA020000
(1607303791.862358) can0 1B00004E#4E40040900010000
(1607303791.862486) can0 17F#4B0F000000000000
(1607303791.862491) can0 322#FEEF7FFFF30F0000
(1607303791.862497) can0 0A0#9101000000009033
(1607303791.863858) can0 497#0000000096940060
(1607303791.863985) can0 0A8#1EE99F487F640000
(1607303791.865357) can0 0FD#42E93F0000000000
(1607303791.865485) can0 103#4A09000000000000
(1607303791.865491) can0 116#D7090000000000FF
(1607303791.868108) can0 0A7#80D95F7FFDF5D71D
(1607303791.868236) can0 0AD#8DEEBFFF8B140000
(1607303791.868241) can0 326#FFFFFFFFFFFFFFF1
(1607303791.868359) can0 327#3D28FC3AFB6FFB20
(1607303791.869732) can0 328#FFFFFFFFFFFFFFF1
(1607303791.869859) can0 329#FFFFFFFFFFFFFFF1
(1607303791.871232) can0 534#0000000000500000
(1607303791.871360) can0 189#B83A
(1607303791.872735) can0 2B7#2C090000000000FE
(1607303791.872861) can0 30F#6009720000000000
(1607303791.872866) can0 0A0#9E02000000009033
(1607303791.872872) can0 1A8#650B000120000400
(1607303791.872986) can0 313#FF81FFFFFF81FFFF
(1607303791.872992) can0 314#FF81FFFFFF81FFFF
(1607303791.873109) can0 315#FF81FFFFFF81FFFF
(1607303791.874482) can0 0A8#41EA9F487F640000
(1607303791.878357) can0 121#6D0A000020427EFE
(1607303791.882232) can0 0A0#1403000000009033
(1607303791.884857) can0 040#470E008081000068
(1607303791.884985) can0 0A8#8CEB9F487F640000
(1607303791.884990) can0 0FD#0EEA3F0000000000
(1607303791.884996) can0 103#E60A000000000000
(1607303791.885108) can0 116#7B0A0000000000FF
(1607303791.886482) can0 321#F03E
(1607303791.886610) can0 320#003E0000
(1607303791.887981) can0 0A7#E8DB5F7FFDF5D71D
(1607303791.893106) can0 0A0#FD04000000009033
(1607303791.893234) can0 1A8#8A0C000120000400
(1607303791.893240) can0 463#00E03F0000000000
(1607303791.894606) can0 0A8#92EC9F487F640000
(1607303791.902231) can0 17F#DA00000000000000
(1607303791.902359) can0 322#8BE07FFFF30F0000
(1607303791.902365) can0 0A0#ED05000000009033
(1607303791.902483) can0 663#600020080092000C
(1607303791.903856) can0 30B#1006000008000020
(1607303791.903993) can0 3D5#FB00000414000000
(1607303791.903999) can0 0FD#21EB3F0000000000
(1607303791.904107) can0 0A8#81ED9F487F640000
(1607303791.905484) can0 103#820B000000000000
(1607303791.905610) can0 116#1F0B0000000000FF
(1607303791.905616) can0 3C0#DE022300
(1607303791.908233) can0 0A7#A7DD5F7FFDF5D71D
(1607303791.908359) can0 326#FFFFFFFFFFFFFFF1
(1607303791.908365) can0 327#FFFFFFFFFFFFFFF1
(1607303791.908483) can0 328#FFFFFFFFFFFFFFF1
(1607303791.908609) can0 329#FFFFFFFFFFFFFFF1
(1607303791.909982) can0 3F2#0008000000007D00
(1607303791.911356) can0 189#B83A
(1607303791.912731) can0 313#FF81FFFFFF81FFFF
(1607303791.912858) can0 314#FF81FFFFFF81FFFF
(1607303791.912864) can0 0A0#3006000000009033
(1607303791.912869) can0 1A8#590D000120000400
(1607303791.912982) can0 1FC#748A000000006000
(1607303791.912987) can0 315#FF81FFFFFF81FFFF
(1607303791.914356) can0 0A8#33EE9F487F640000
(1607303791.921981) can0 2B7#220A0000000000FE
(1607303791.922108) can0 30F#CC0A720000000000
(1607303791.922114) can0 0A0#A107000000009033
(1607303791.923481) can0 3D0#020000008C000300
(1607303791.924856) can0 040#DE0F00808100006A
(1607303791.924984) can0 0A8#BCEF9F487F640000
(1607303791.924989) can0 0FD#B8EC3F0000000000
(1607303791.924995) can0 103#910C000000000000
(1607303791.925108) can0 116#0C0C0000000000FF
(1607303791.926480) can0 321#8840
(1607303791.926608) can0 320#003E0000
(1607303791.926614) can0 15C#000000000000FEFF
(1607303791.927982) can0 1B00002A#2A40080100000000
(1607303791.928110) can0 3F3#007D00FE65D2FF27
(1607303791.928115) can0 0A7#F2DF5F7FFDF5D71D
(1607303791.928121) can0 121#350F000020427EFE
(1607303791.928232) can0 12DD5461#00000000004013D0
(1607303791.929605) can0 3BE#4A26970142000080
(1607303791.930980) can0 397#0040000000FA1F00
(1607303791.932355) can0 0A0#3D08000000009033
(1607303791.932483) can0 1A8#DB0E000120000400
(1607303791.933855) can0 0A8#D4E09F487F640000
(1607303791.936480) can0 1B000069#6940080100000000
(1607303791.941604) can0 17F#2501000000000000
(1607303791.941732) can0 322#CAE17FFFF30F0000
(1607303791.943105) can0 0A0#DB09000000009033
(1607303791.943237) can0 464#081A000000000000
(1607303791.944604) can0 0FD#31ED3F0000000000
(1607303791.944732) can0 0A8#AEE19F487F640000
(1607303791.944738) can0 103#F50D000000000000
(1607303791.944744) can0 116#680D0000000000FF
(1607303791.948604) can0 0A7#B3D15F7FFDF5D71D
(1607303791.948733) can0 326#FFFFFFFFFFFFFFF1
(1607303791.948739) can0 327#FFFFFFFFFFFFFFF1
(1607303791.948745) can0 328#FFFFFFFFFFFFFFF1
(1607303791.948855) can0 329#FFFFFFFFFFFFFFF1
(1607303791.948990) can0 3B5#840020001C002800
(1607303791.950363) can0 1B00008A#8A40080100000000
(1607303791.951732) can0 189#C03E
(1607303791.951859) can0 313#FF81FFFFFF81FFFF
(1607303791.951993) can0 314#FF81FFFFFF81FFFF
(1607303791.952106) can0 0A0#1F0A000000009033
(1607303791.953481) can0 1A8#500F0001E0FF0300
(1607303791.953608) can0 315#FF81FFFFFF81FFFF
(1607303791.953614) can0 30B#1007000008000020
(1607303791.953620) can0 395#100440047D7D6B0C
(1607303791.954980) can0 641#4F6F3FC8061EFF5A
(1607303791.955107) can0 0A8#42E29F487F640000
(1607303791.962729) can0 0A0#560B000000009033
(1607303791.964104) can0 497#0000000096940060
(1607303791.964232) can0 040#B40000808100006C
(1607303791.964238) can0 0A8#ADE39F487F640000
(1607303791.965605) can0 0FD#CEEE3F0000000000
(1607303791.965731) can0 103#590E000000000000
(1607303791.965736) can0 116#C40E0000000000FF
(1607303791.965862) can0 321#6841
(1607303791.965981) can0 320#003E0000
(1607303791.967354) can0 3D4#E503800600000000
(1607303791.968729) can0 0A7#46D35F7FFDF5D71D
(1607303791.968855) can0 0AD#ABE8BFFF8B140000
(1607303791.971478) can0 2B7#540B0000000000FE
(1607303791.972854) can0 30F#A80B720000000000
(1607303791.972981) can0 0A0#E10C000000009033
(1607303791.972987) can0 1A8#A9000001E0FF0300
(1607303791.974354) can0 0A8#01E49F487F640000
(1607303791.975730) can0 3C1#0008000AAE020000
(1607303791.978359) can0 121#5704000020427EFE
(1607303791.982232) can0 17F#B002000000000000
(1607303791.982357) can0 322#FAE27FFFF30F0000
(1607303791.982362) can0 0A0#C50D000000009033
(1607303791.982484) can0 391#00846AFFFF260000
(1607303791.983853) can0 0FD#59EF3F0000000000
(1607303791.985229) can0 0A8#6BE59F487F640000
(1607303791.985357) can0 103#3D0F000000000000
(1607303791.985362) can0 116#A00F0000000000FF
(1607303791.987986) can0 0A7#07D55F7FFDF5D71D
(1607303791.988112) can0 326#FFFFFFFFFFFFFFF1
(1607303791.988118) can0 327#3D28DC3AF96FFB20
(1607303791.989478) can0 328#FFFFFFFFFFFFFFF1
(1607303791.989606) can0 329#FFFFFFFFFFFFFFF1
(1607303791.989612) can0 3F2#0009000000007D00
(1607303791.992228) can0 189#C03E
(1607303791.992356) can0 313#FF81FFFFFF81FFFF
(1607303791.992362) can0 314#FF81FFFFFF81FFFF
(1607303791.992368) can0 0A0#5B0E000000009033
(1607303791.992480) can0 1A8#2F010001E0FF0300
(1607303791.992605) can0 315#FF81FFFFFF81FFFF
(1607303791.993978) can0 462#0000380000010000
(1607303791.994106) can0 58F#0000FEBBFE0E0000
(1607303791.994112) can0 0A8#5BE69F487F640000
(1607303791.997980) can0 65D#6F3830120008348E
(1607303791.999354) can0 1A555496#0000000000000047
(1607303792.003229) can0 0A0#B50F000000009033
(1607303792.003356) can0 663#600020080092000C
(1607303792.003361) can0 30B#1008000008000020
(1607303792.003479) can0 1B000010#1050040900030000
(1607303792.004852) can0 3C1#0008000AAE020000
(1607303792.004981) can0 040#2D0100808100006E
(1607303792.004987) can0 0A8#4EE79F487F640000
(1607303792.004992) can0 0FD#23E03F0000000000
(1607303792.005104) can0 103#7F00000000000000
(1607303792.005110) can0 116#E2000000000000FF
(1607303792.005228) can0 3D5#AC01000414000000
(1607303792.005354) can0 3C0#6B032300
(1607303792.006743) can0 54B#0000000000000000
(1607303792.006861) can0 598#000000000A800200
(1607303792.006867) can0 320#003E0000
(1607303792.006872) can0 321#3043
(1607303792.006982) can0 5F0#D200634C0B7E0000
(1607303792.006988) can0 5A0#BEE2812E78000000
(1607303792.006994) can0 5F4#0000630080002400
(1607303792.008354) can0 16A95495#0000000000000000
(1607303792.008481) can0 5E1#AD0A000000000000
(1607303792.008486) can0 0A7#1DD75F7FFDF5D71D
(1607303792.008493) can0 1AB#B880840A00000000
(1607303792.009853) can0 658#7D04060000000100
(1607303792.009981) can0 65A#00000610002E0000
(1607303792.009986) can0 6A6#1000020000000000
(1607303792.011353) can0 397#0040000000FA1F00
(1607303792.012728) can0 0A0#9800000000009033
(1607303792.012855) can0 1A8#5A120001E0FF0300
(1607303792.012861) can0 1A2#760F702430024002
(1607303792.012866) can0 1FC#208F000000006000
(1607303792.014228) can0 0A8#6CE89F487F640000
(1607303792.021877) can0 17F#1D03000000000000
(1607303792.021988) can0 2A1#0000000000000000
(1607303792.022106) can0 2B7#B70C0000000000FE
(1607303792.022235) can0 0A0#9101000000009033
(1607303792.023622) can0 30F#BB0C720000000000
(1607303792.023737) can0 322#BFE37FFFF30F0000
(1607303792.023743) can0 3D0#020000008C000300
(1607303792.023856) can0 0FD#29E13F0000000000
(1607303792.025228) can0 0A8#1EE99F487F640000
(1607303792.025353) can0 103#1B01000000000000
(1607303792.025358) can0 116#86010000000000FF
(1607303792.026726) can0 15C#000000000000FEFF
(1607303792.028101) can0 3F3#007E00FE65D2FF27
(1607303792.028228) can0 12DD5461#00000000004013D0
(1607303792.028233) can0 0A7#80D95F7FFDF5D71D
(1607303792.028239) can0 121#0809000020427EFE
(1607303792.028352) can0 326#FFFFFFFFFFFFFFF1
(1607303792.029726) can0 327#3D28FC3AFB6FFB20
(1607303792.029853) can0 328#FFFFFFFFFFFFFFF1
(1607303792.029858) can0 329#FFFFFFFFFFFFFFF1
(1607303792.029864) can0 3BE#C627970142000080
(1607303792.031226) can0 583#0010050000084000
(1607303792.031353) can0 6B4#015A5A5A4659324C
(1607303792.031360) can0 189#C03E
(1607303792.032726) can0 313#FF81FFFFFF81FFFF
(1607303792.032852) can0 314#FF81FFFFFF81FFFF
(1607303792.032858) can0 0A0#9E02000000009033
(1607303792.032863) can0 1A8#4713000120000400
(1607303792.032978) can0 18A#0000211400000000
(1607303792.032983) can0 315#FF81FFFFFF81FFFF
(1607303792.034351) can0 0A8#41EA9F487F640000
(1607303792.043226) can0 0A0#1403000000009033
(1607303792.043351) can0 463#00E03F0000000000
(1607303792.044725) can0 040#0902008081000070
(1607303792.044852) can0 0A8#8CEB9F487F640000
(1607303792.044857) can0 0FD#E6E23F0000000000
(1607303792.044863) can0 103#B702000000000000
(1607303792.044976) can0 116#2A020000000000FF
(1607303792.046350) can0 321#2844
(1607303792.046476) can0 320#003E0000
(1607303792.047850) can0 0A7#E8DB5F7FFDF5D71D
(1607303792.049225) can0 3B5#840020001C002800
(1607303792.050600) can0 668#020000000010001C
(1607303792.053225) can0 0A0#FD04000000009033
(1607303792.053351) can0 1A8#6614000120000400
(1607303792.054724) can0 395#100540047D7D6B0C
(1607303792.054851) can0 0A8#92EC9F487F640000
(1607303792.054857) can0 30B#1009000008000020
(1607303792.062475) can0 1B00004E#4E40040900010000
(1607303792.062602) can0 17F#AC04000000000000
(1607303792.062607) can0 322#50E47FFFF30F0000
(1607303792.062613) can0 0A0#ED05000000009033
(1607303792.063975) can0 497#0000000096940060
(1607303792.064101) can0 0A8#81ED9F487F640000
(1607303792.064226) can0 0FD#93E33F0000000000
(1607303792.065604) can0 103#D303000000000000
(1607303792.065732) can0 116#4E030000000000FF
(1607303792.068353) can0 0A7#A7DD5F7FFDF5D71D
(1607303792.068478) can0 0AD#6BE2BFFF8B140000
(1607303792.068484) can0 326#FFFFFFFFFFFFFFF1
(1607303792.068490) can0 327#3D28FC3AFB6FFB20
(1607303792.068601) can0 328#FFFFFFFFFFFFFFF1
(1607303792.069974) can0 329#FFFFFFFFFFFFFFF1
(1607303792.070100) can0 3F2#000A000000007D00
(1607303792.071474) can0 534#0000000000500000
(1607303792.071602) can0 189#9842
(1607303792.071607) can0 2B7#820D0000000000FE
(1607303792.072975) can0 30F#DF0D720000000000
(1607303792.073101) can0 0A0#3006000000009033
(1607303792.073107) can0 1A8#61050001E0FF0300
(1607303792.073112) can0 313#FF81FFFFFF81FFFF
(1607303792.073226) can0 314#FF81FFFFFF81FFFF
(1607303792.073231) can0 315#FF81FFFFFF81FFFF
(1607303792.074599) can0 0A8#33EE9F487F640000
(1607303792.078476) can0 121#830E000020427EFE
(1607303792.082352) can0 0A0#A107000000009033
(1607303792.084974) can0 040#9003008081000072
(1607303792.085101) can0 0A8#BCEF9F487F640000
(1607303792.085107) can0 0FD#05E43F0000000000
(1607303792.085112) can0 103#C004000000000000
(1607303792.085225) can0 116#5D040000000000FF
(1607303792.086598) can0 321#E845
(1607303792.086726) can0 320#003E0000
(1607303792.088098) can0 0A7#F2DF5F7FFDF5D71D
(1607303792.091973) can0 397#0040000000FA1F00
(1607303792.092100) can0 0A0#3D08000000009033
(1607303792.092224) can0 1A8#06060001E0FF0300
(1607303792.093598) can0 464#03E86C6EDDED0C45
(1607303792.093724) can0 3C1#0008000AB2020000
(1607303792.093849) can0 0A8#D4E09F487F640000
(1607303792.101473) can0 17F#F905000000000000
(1607303792.102848) can0 322#47E57FFFF30F0000
(1607303792.102975) can0 0A0#DB09000000009033
(1607303792.102981) can0 663#600020080092000C
(1607303792.104348) can0 3D5#6D02000414000000
(1607303792.104475) can0 0FD#9FE53F0000000000
(1607303792.104480) can0 0A8#AEE19F487F640000
(1607303792.104486) can0 103#A405000000000000
(1607303792.104599) can0 116#39050000000000FF
(1607303792.105973) can0 30B#100A000008000020
(1607303792.106099) can0 3C0#11042300
(1607303792.108723) can0 0A7#B3D15F7FFDF5D71D
(1607303792.108860) can0 326#FFFFFFFFFFFFFFF1
(1607303792.108865) can0 327#FFFFFFFFFFFFFFF1
(1607303792.108871) can0 328#FFFFFFFFFFFFFFF1
(1607303792.108977) can0 329#FFFFFFFFFFFFFFF1
(1607303792.111601) can0 189#9842
(1607303792.111735) can0 313#FF81FFFFFF81FFFF
(1607303792.111851) can0 314#FF81FFFFFF81FFFF
(1607303792.113231) can0 0A0#1F0A000000009033
(1607303792.113350) can0 1A8#9507000120000400
(1607303792.113359) can0 1FC#7584000000006000
(1607303792.113364) can0 315#FF81FFFFFF81FFFF
(1607303792.114723) can0 640#807E94BB7E421000
(1607303792.114849) can0 0A8#42E29F487F640000
(1607303792.122473) can0 2B7#060E0000000000FE
(1607303792.122599) can0 30F#730E720000000000
(1607303792.122605) can0 0A0#560B000000009033
(1607303792.123972) can0 3D0#020000008C000300
(1607303792.124099) can0 040#AB04008081000074
(1607303792.124104) can0 0A8#ADE39F487F640000
(1607303792.125472) can0 0FD#8DE63F0000000000
(1607303792.125599) can0 103#0806000000000000
(1607303792.125605) can0 116#95060000000000FF
(1607303792.126972) can0 321#C046
(1607303792.127099) can0 320#003E0000
(1607303792.127106) can0 15C#000000000000FEFF
(1607303792.127224) can0 1B00002A#2A40080100000000
(1607303792.128597) can0 3F3#007F00FE65D2FF27
(1607303792.128724) can0 0A7#46D35F7FFDF5D71D
(1607303792.128730) can0 121#EA03000020427EFE
(1607303792.128736) can0 12DD5461#00000000004013D0
(1607303792.128852) can0 3BE#3C28970142000080
(1607303792.132727) can0 0A0#E10C000000009033
(1607303792.132854) can0 1A8#6008000120000400
(1607303792.134224) can0 670#1B10100000010064
(1607303792.134349) can0 0A8#01E49F487F640000
(1607303792.136973) can0 1B000069#6940080100000000
(1607303792.142097) can0 17F#0606000000000000
(1607303792.142224) can0 322#E9E67FFFF30F0000
(1607303792.142229) can0 0A0#C50D000000009033
(1607303792.143597) can0 462#0000380000010000
(1607303792.144973) can0 0FD#B7E73F0000000000
(1607303792.145098) can0 0A8#6BE59F487F640000
(1607303792.145104) can0 103#6C07000000000000
(1607303792.145109) can0 116#F1070000000000FF
(1607303792.147722) can0 0A7#07D55F7FFDF5D71D
(1607303792.147847) can0 326#FFFFFFFFFFFFFFF1
(1607303792.149221) can0 327#FFFFFFFFFFFFFFF1
(1607303792.149348) can0 328#FFFFFFFFFFFFFFF1
(1607303792.149354) can0 329#FFFFFFFFFFFFFFF1
(1607303792.149359) can0 3F2#000B000000007D00
(1607303792.149473) can0 3B5#840020001C002800
(1607303792.150848) can0 1B00008A#8A40080100000000
(1607303792.152221) can0 189#9842
(1607303792.152348) can0 313#FF81FFFFFF81FFFF
(1607303792.152354) can0 314#FF81FFFFFF81FFFF
(1607303792.152359) can0 0A0#5B0E000000009033
(1607303792.152473) can0 1A8#3F090001E0FF0300
(1607303792.152598) can0 315#FF81FFFFFF81FFFF
(1607303792.153971) can0 395#100640047D7D6B0C
(1607303792.154098) can0 0A8#5BE69F487F640000
(1607303792.155471) can0 30B#100B000008000020
(1607303792.158096) can0 65D#3D3A30120008348E
(1607303792.163221) can0 0A0#B50F000000009033
(1607303792.164596) can0 497#0000000096940060
